Using: /usr/local/apps/synopsys/hspice/linux/hspice runsim.sp
 ****** HSPICE -- I-2013.12-SP2-1 32-BIT (Jun 10 2014) RHEL32 ******            
  Copyright (C) 2014 Synopsys, Inc. All Rights Reserved.                        
  Unpublished-rights reserved under US copyright laws.
  This program is protected by law and is subject to the
  terms and conditions of the license agreement from Synopsys.
  Use of this program is your acceptance to be bound by the
  license agreement. HSPICE is the trademark of Synopsys, Inc.
  Input File: runsim.sp                                                         
  Command line options: runsim.sp
 lic:  
 lic: FLEXlm: v10.9.8 
 lic: USER:   niels538             HOSTNAME: ece-brunnen 
 lic: HOSTID: 1803734581ca         PID:      33923 
 lic: Using FLEXlm license file: 
 lic: 27020@synopsys.cse.umn.edu 
 lic: Checkout 1 hspice 
 lic: License/Maintenance for hspice will expire on 19-dec-2016/2015.06 
 lic: 1(in_use)/50(total) FLOATING license(s) on SERVER 27020@synopsys.cse.umn.edu 
 lic:   
 Init: read install configuration file: /usr/local/apps/synopsys/hspice/meta.cfg
 **warning** (test_mos.sp:6)'.end' can not exist in include/lib files, ignored
 scientific notation:
 a=10**-18  f=10**-15  p=10**-12  n=10**-9  u=10**-6
 m=10**-3   k=10**3    x=10**6    g=10**9 
 **warning** multiple output options specified, using post    


 circuit parameter definitions
  parameter          =  value 

     0:len!                                                    = 4.500e-08      
     0:vd                                                      = 1.100e+00      




 constants  - tnom         kt           vt           gapsi        ni
            2.9815e+02   4.1163e-21   2.5692e-02   1.1156e+00   1.2565e+16 
1****** HSPICE -- I-2013.12-SP2-1 32-BIT (Jun 10 2014) RHEL32 ******            
 ******  
 **mos characterization

 ****** mos   model parameters tnom=  25.000 temp=  25.000 ******
 Model Name: nmos_vtl  
 BSIM4 Model (Level 54)
    MOBMOD = 0
    BINUNIT = 1
    PARAMCHK = 1
    CAPMOD = 2
    DIOMOD = 1
    RDSMOD = 0
    TRNQSMOD = 0
    ACNQSMOD = 0
    RBODYMOD = 1
    RGATEMOD = 1
    PERMOD = 1
    GEOMOD = 1
    RGEOMOD = 0
    FNOIMOD = 1
    TNOIMOD = 0
    IGCMOD = 1
    IGBMOD = 1
    STIMOD = 0
    VERSION =      4 
    TOXREF = 1.75e-09 
    TOXE = 1.75e-09 
    TOXP = 1.1e-09 
    TOXM = 1.75e-09 
    DTOX = 6.5e-10 
    EPSROX =    3.9 
    CDSC =      0 
    CDSCB =      0 
    CDSCD =      0 
    CIT =      0 
    NFACTOR =    2.1 
    XJ = 1.4e-08 
    VSAT = 1.474e+05 
    A0 =      1 
    AGS =  1e-20 
    A1 =      0 
    A2 =      1 
    AT = 3.3e+04 
    KETA =   0.04 
    NSUB =  6e+16 
    NDEP = 3.3e+18 
    NSD =  2e+20 
    NGATE =  2e+20 
    GAMMA1 =      0 
    GAMMA2 =      0 
    VBX =      0 
    VBM =     -3 
    XT = 1.55e-07 
    K1 =   0.53 
    KT1 =  -0.11 
    KT1L =      0 
    KT2 =  0.022 
    K2 =   0.01 
    K3 =      0 
    K3B =      0 
    LPE0 =      0 
    LPEB =      0 
    DVTP0 =  1e-09 
    DVTP1 =    0.1 
    W0 = 2.5e-06 
    DVT0 =      1 
    DVT1 =      2 
    DVT2 = -0.032 
    DVT0W =      0 
    DVT1W =      0 
    DVT2W =      0 
    DROUT =    0.5 
    DSUB =    0.1 
    VTH0 =  0.471 
    EU =   1.67 
    UA =  6e-10 
    UA1 = 4.31e-09 
    UB = 1.2e-18 
    UB1 = 7.61e-18 
    UC =      0 
    UC1 = -5.6e-11 
    U0 = 0.04359 
    UTE =   -1.5 
    VOFF =  -0.13 
    VOFFL =      0 
    MINV =   0.05 
    FPROUT =    0.2 
    PDITS =   0.08 
    PDITSD =   0.23 
    PDITSL = 2.3e+06 
    DELTA =   0.01 
    RDSW =    155 
    RDSWMIN =      0 
    RDWMIN =      0 
    RSWMIN =      0 
    RDW =     85 
    RSW =     85 
    PRWG =      0 
    PRWB = 6.8e-11 
    PRT =      0 
    ETA0 = 0.0049 
    ETAB =      0 
    PCLM =   0.04 
    PDIBLC1 =  0.001 
    PDIBLC2 =  0.001 
    PDIBLCB = -0.005 
    PSCBE1 = 8.14e+08 
    PSCBE2 =  1e-07 
    PVAG =  1e-20 
    WR =      1 
    DWG =      0 
    DWB =      0 
    XW =      0 
    XWREF =      0 
    XL = -2e-08 
    XLREF = -2e-08 
    B0 =      0 
    B1 =      0 
    ALPHA0 =  0.074 
    ALPHA1 =  0.005 
    AGIDL = 0.0002 
    BGIDL = 2.1e+09 
    CGIDL = 0.0002 
    PHIN =      0 
    EGIDL =    0.8 
    AIGC =  0.012 
    BIGC = 0.0028 
    CIGC =  0.002 
    AIGSD =  0.012 
    BIGSD = 0.0028 
    CIGSD =  0.002 
    AIGBACC =  0.012 
    BIGBACC = 0.0028 
    CIGBACC =  0.002 
    AIGBINV =  0.014 
    BIGBINV =  0.004 
    CIGBINV =  0.004 
    NIGC =      1 
    NIGBINV =      3 
    NIGBACC =      1 
    NTOX =      1 
    EIGBINV =    1.1 
    PIGCD =      1 
    POXEDGE =      1 
    XRCRG1 =     12 
    TNOIA =    1.5 
    TNOIB =    3.5 
    NTNOI =      1 
    XRCRG2 =      5 
    BETA0 =     30 
    IJTHDFWD =   0.01 
    IJTHSFWD =   0.01 
    IJTHDREV =  0.001 
    IJTHSREV =  0.001 
    XJBVD =      1 
    XJBVS =      1 
    BVD =     10 
    BVS =     10 
    VFB =  -0.55 
    GBMIN =  1e-10 
    RBDB =     15 
    RBPB =      5 
    RBSB =     15 
    RBPS =     15 
    RBPD =     15 
    CGSL = 2.653e-10 
    CGDL = 2.653e-10 
    CKAPPAS =   0.03 
    CKAPPAD =   0.03 
    CF = 1.195e-10 
    CLC =  1e-07 
    CLE =    0.6 
    DWC =  5e-09 
    DLC = 3.75e-09 
    DLCIG = 3.75e-09 
    DWJ =      0 
    VFBCV =     -1 
    ACDE =      1 
    MOIN =     15 
    NOFF =    0.9 
    VOFFCV =   0.02 
    DMCG =      0 
    DMCI =      0 
    DMDG =      0 
    DMCGT =      0 
    XGW =      0 
    XGL =      0 
    RSHG =    0.4 
    NGCON =      1 
    TCJ =  0.001 
    TPB =  0.005 
    TCJSW =  0.001 
    TPBSW =  0.005 
    TCJSWG =  0.001 
    TPBSWG =  0.005 
    SK0 =      0 
    SK1 =      0 
    SK2 =      0 
    SL =  2e-06 
    SW =  2e-06 
    K =      0 
    TNOM =  300.1 
    CGSO = 1.1e-10 
    CGDO = 1.1e-10 
    CGBO = 2.56e-11 
    XPART =      0 
    RSH =      5 
    JSS = 0.0001 
    JSWS =  1e-11 
    JSWGS =  1e-10 
    PBS =      1 
    MJS =    0.5 
    PBSWS =      1 
    MJSWS =   0.33 
    CJS = 0.0005 
    CJSWS =  5e-10 
    NJS =      1 
    PBSWGS =      1 
    MJSWGS =   0.33 
    CJSWGS =  3e-10 
    XTIS =      3 
    JSD = 0.0001 
    JSWD =  1e-11 
    JSWGD =  1e-10 
    PBD =      1 
    MJD =    0.5 
    PBSWD =      1 
    MJSWD =   0.33 
    CJD = 0.0005 
    CJSWD =  5e-10 
    NJD =      1 
    PBSWGD =      1 
    MJSWGD =   0.33 
    CJSWGD =  5e-10 
    XTID =      3 
    LMLT =      1 
    WMLT =      1 
    LINT = 3.75e-09 
    LL =      0 
    LLC =      0 
    LLN =      1 
    LW =      0 
    LWC =      0 
    LWN =      1 
    LWL =      0 
    LWLC =      0 
    LMIN =      0 
    LMAX =      1 
    WINT =  5e-09 
    WL =      0 
    WLC =      0 
    WLN =      1 
    WW =      0 
    WWC =      0 
    WWN =      1 
    WWL =      0 
    WWLC =      0 
    WMIN =      0 
    WMAX =      1 
    NOIA = 6.25e+41 
    NOIB = 3.125e+26 
    NOIC = 8.75e+09 
    EM = 4.1e+07 
    EF =      1 
    AF =      1 
    KF =      0 
    TRS =      0 
    TRD =      0 
 Model Name: pmos_vtl  
 BSIM4 Model (Level 54)
    MOBMOD = 0
    BINUNIT = 1
    PARAMCHK = 1
    CAPMOD = 2
    DIOMOD = 1
    RDSMOD = 0
    TRNQSMOD = 0
    ACNQSMOD = 0
    RBODYMOD = 1
    RGATEMOD = 1
    PERMOD = 1
    GEOMOD = 1
    RGEOMOD = 0
    FNOIMOD = 1
    TNOIMOD = 0
    IGCMOD = 1
    IGBMOD = 1
    STIMOD = 0
    VERSION =      4 
    TOXREF = 1.85e-09 
    TOXE = 1.85e-09 
    TOXP = 1.1e-09 
    TOXM = 1.85e-09 
    DTOX = 7.5e-10 
    EPSROX =    3.9 
    CDSC =      0 
    CDSCB =      0 
    CDSCD =      0 
    CIT =      0 
    NFACTOR =    2.1 
    XJ = 1.4e-08 
    VSAT =  7e+04 
    A0 =      1 
    AGS =  1e-20 
    A1 =      0 
    A2 =      1 
    AT = 3.3e+04 
    KETA = -0.047 
    NSUB =  6e+16 
    NDEP = 2.54e+18 
    NSD =  2e+20 
    NGATE =  2e+20 
    GAMMA1 =      0 
    GAMMA2 =      0 
    VBX =      0 
    VBM =     -3 
    XT = 1.55e-07 
    K1 =  0.491 
    KT1 =  -0.11 
    KT1L =      0 
    KT2 =  0.022 
    K2 =  -0.01 
    K3 =      0 
    K3B =      0 
    LPE0 =      0 
    LPEB =      0 
    DVTP0 =  1e-09 
    DVTP1 =   0.05 
    W0 = 2.5e-06 
    DVT0 =      1 
    DVT1 =      2 
    DVT2 = -0.032 
    DVT0W =      0 
    DVT1W =      0 
    DVT2W =      0 
    DROUT =   0.56 
    DSUB =    0.1 
    VTH0 = -0.423 
    EU =      1 
    UA =  2e-09 
    UA1 = 4.31e-09 
    UB =  5e-19 
    UB1 = 7.61e-18 
    UC =      0 
    UC1 = -5.6e-11 
    U0 = 0.00432 
    UTE =   -1.5 
    VOFF = -0.126 
    VOFFL =      0 
    MINV =   0.05 
    FPROUT =    0.2 
    PDITS =   0.08 
    PDITSD =   0.23 
    PDITSL = 2.3e+06 
    DELTA =   0.01 
    RDSW =    155 
    RDSWMIN =      0 
    RDWMIN =      0 
    RSWMIN =      0 
    RDW =     85 
    RSW =     85 
    PRWG = 3.22e-08 
    PRWB = 6.8e-11 
    PRT =      0 
    ETA0 = 0.0049 
    ETAB =      0 
    PCLM =   0.12 
    PDIBLC1 =  0.001 
    PDIBLC2 =  0.001 
    PDIBLCB = 3.4e-08 
    PSCBE1 = 8.14e+08 
    PSCBE2 = 9.58e-07 
    PVAG =  1e-20 
    WR =      1 
    DWG =      0 
    DWB =      0 
    XW =      0 
    XWREF =      0 
    XL = -2e-08 
    XLREF = -2e-08 
    B0 = -1e-20 
    B1 =      0 
    ALPHA0 =  0.074 
    ALPHA1 =  0.005 
    AGIDL = 0.0002 
    BGIDL = 2.1e+09 
    CGIDL = 0.0002 
    PHIN =      0 
    EGIDL =    0.8 
    AIGC =   0.69 
    BIGC = 0.0012 
    CIGC = 0.0008 
    AIGSD = 0.0087 
    BIGSD = 0.0012 
    CIGSD = 0.0008 
    AIGBACC =  0.012 
    BIGBACC = 0.0028 
    CIGBACC =  0.002 
    AIGBINV =  0.014 
    BIGBINV =  0.004 
    CIGBINV =  0.004 
    NIGC =      1 
    NIGBINV =      3 
    NIGBACC =      1 
    NTOX =      1 
    EIGBINV =    1.1 
    PIGCD =      1 
    POXEDGE =      1 
    XRCRG1 =     12 
    TNOIA =    1.5 
    TNOIB =    3.5 
    NTNOI =      1 
    XRCRG2 =      5 
    BETA0 =     30 
    IJTHDFWD =   0.01 
    IJTHSFWD =   0.01 
    IJTHDREV =  0.001 
    IJTHSREV =  0.001 
    XJBVD =      1 
    XJBVS =      1 
    BVD =     10 
    BVS =     10 
    VFB =   0.55 
    GBMIN =  1e-10 
    RBDB =     15 
    RBPB =      5 
    RBSB =     15 
    RBPS =     15 
    RBPD =     15 
    CGSL = 2.653e-10 
    CGDL = 2.653e-10 
    CKAPPAS =   0.03 
    CKAPPAD =   0.03 
    CF = 1.183e-10 
    CLC =  1e-07 
    CLE =    0.6 
    DWC =  5e-09 
    DLC = 3.75e-09 
    DLCIG = 3.75e-09 
    DWJ =      0 
    VFBCV =     -1 
    ACDE =      1 
    MOIN =     15 
    NOFF =    0.9 
    VOFFCV =   0.02 
    DMCG =      0 
    DMCI =      0 
    DMDG =      0 
    DMCGT =      0 
    XGW =      0 
    XGL =      0 
    RSHG =    0.4 
    NGCON =      1 
    TCJ =  0.001 
    TPB =  0.005 
    TCJSW =  0.001 
    TPBSW =  0.005 
    TCJSWG =  0.001 
    TPBSWG =  0.005 
    SK0 =      0 
    SK1 =      0 
    SK2 =      0 
    SL =  2e-06 
    SW =  2e-06 
    K =      0 
    TNOM =  300.1 
    CGSO = 1.1e-10 
    CGDO = 1.1e-10 
    CGBO = 2.56e-11 
    XPART =      0 
    RSH =      5 
    JSS = 0.0001 
    JSWS =  1e-11 
    JSWGS =  1e-10 
    PBS =      1 
    MJS =    0.5 
    PBSWS =      1 
    MJSWS =   0.33 
    CJS = 0.0005 
    CJSWS =  5e-10 
    NJS =      1 
    PBSWGS =      1 
    MJSWGS =   0.33 
    CJSWGS =  3e-10 
    XTIS =      3 
    JSD = 0.0001 
    JSWD =  1e-11 
    JSWGD =  1e-10 
    PBD =      1 
    MJD =    0.5 
    PBSWD =      1 
    MJSWD =   0.33 
    CJD = 0.0005 
    CJSWD =  5e-10 
    NJD =      1 
    PBSWGD =      1 
    MJSWGD =   0.33 
    CJSWGD =  5e-10 
    XTID =      3 
    LMLT =      1 
    WMLT =      1 
    LINT = 3.75e-09 
    LL =      0 
    LLC =      0 
    LLN =      1 
    LW =      0 
    LWC =      0 
    LWN =      1 
    LWL =      0 
    LWLC =      0 
    LMIN =      0 
    LMAX =      1 
    WINT =  5e-09 
    WL =      0 
    WLC =      0 
    WLN =      1 
    WW =      0 
    WWC =      0 
    WWN =      1 
    WWL =      0 
    WWLC =      0 
    WMIN =      0 
    WMAX =      1 
    NOIA = 6.188e+40 
    NOIB = 1.5e+25 
    NOIC = 8.75e+09 
    EM = 4.1e+07 
    EF =      1 
    AF =      1 
    KF =      0 
    TRS =      0 
    TRD =      0 
 **warning** (nmos_vtl:m0) Warning:  Acde = 0.279016 may be too small in BSIM4 model with w=3.6e-07 l=4.5e-08.
1****** HSPICE -- I-2013.12-SP2-1 32-BIT (Jun 10 2014) RHEL32 ******            
 ******  
 **mos characterization

 ****** circuit element summary tnom=  25.000 temp=  25.000 ******


 **** resistors

  
  
                             
 element name        0:r1    
 node1               0:vdn   
 node2               0:vdp   
 model                       
 res eff           1.000e-05 
 tc1                 0.      
 tc2                 0.      
 scale             1.000e+00 
 m                 1.000e+00 
 ac                1.000e-05 
 temp              2.500e+01 
 l                   0.      
 w                   0.      
 cap                 0.      
 noise            1.000e+00  


 **** independent sources

     name         node1        node2      dc volt    ac mag    ac phase    type
  vbulkn  vbn               0                  0.000e+00  0.000e+00  0.000e+00 dc   
  vbulkp  vbp               0                  1.100e+00  0.000e+00  0.000e+00 dc   
  vdd  vdn               0                  1.100e+00  0.000e+00  0.000e+00 dc   
  vgsn  vgn               0                  1.100e+00  0.000e+00  0.000e+00 dc   
  vgsp  vgp               0                  0.000e+00  0.000e+00  0.000e+00 dc   


 **** mosfets


 **** BSIM4 Model (Level 54)
  
  
                                              
 element name        0:m0          0:m1       
 drain               0:vdn         0:0        
 gate                0:vgn         0:vgp      
 source              0:0           0:vdp      
 bulk                0:vbn         0:vbp      
 model               0:nmos_vtl    0:pmos_vtl 
 w eff             3.500e-07     3.500e-07    
 l eff             1.750e-08     1.750e-08    
 rd eff            0.000e+00     0.000e+00    
 rs eff            0.000e+00     0.000e+00    
 cdsat             1.000e-14     1.000e-14    
 cssat             2.847e-17     2.847e-17    
 capbd             1.796e-16     1.796e-16    
 capbs             2.874e-16     2.874e-16    
 temp              2.500e+01     2.500e+01    
 aic                                          
 nf                1.000e+00     1.000e+00    
 min               0.000e+00     0.000e+00    
 rbdb              1.500e+01     1.500e+01    
 rbsb              1.500e+01     1.500e+01    
 rbpb              5.000e+00     5.000e+00    
 rbps              1.500e+01     1.500e+01    
 rbpd              1.500e+01     1.500e+01    
 trnqsmod          0.000e+00     0.000e+00    
 acnqsmod          0.000e+00     0.000e+00    
 rbodymod          1.000e+00     1.000e+00    
 rgatemod          1.000e+00     1.000e+00    
 geomod            1.000e+00     1.000e+00    
 rgeomod           0.000e+00     0.000e+00    
 delvto            0.000e+00     0.000e+00    
 mulu0             1.000e+00     1.000e+00    
 delk1             0.000e+00     0.000e+00    
 delnfct           0.000e+00     0.000e+00    
 deltox            0.000e+00     0.000e+00    
 sa                0.000e+00     0.000e+00    
 sb                0.000e+00     0.000e+00    
 sd                0.000e+00     0.000e+00    
 saeff             0.000e+00     0.000e+00    
 sbeff             0.000e+00     0.000e+00    
 m                 1.000e+00     1.000e+00    
 w drawn           3.600e-07     3.600e-07    
 l drawn           4.500e-08     4.500e-08    
  
             
 Warning:'Shorted resistors' occurs 1 times
 Summary of shorted resistors:
 -------------------------
 |Location    |Resistor  |
 |------------+----------|
 |runsim.sp:25|r1        |
 -------------------------
              
  
1****** HSPICE -- I-2013.12-SP2-1 32-BIT (Jun 10 2014) RHEL32 ******            
 ******  
 **mos characterization

 ****** element node table
                                                                                      
 0                vbulkn           vbulkp           vdd              vgsn             
                  vgsp             m0:s             m1:d                              
 vbn              vbulkn           m0:b                                               
 vbp              vbulkp           m1:b                                               
 vdn              vdd              m0:d             m1:s                              
 vdp              is shorted to    vdn                                                
 vgn              vgsn             m0:g                                               
 vgp              vgsp             m1:g                                               
 *****************************************************************
 ******  option summary
 ******
 runlvl  = 3         bypass  = 2         
1****** HSPICE -- I-2013.12-SP2-1 32-BIT (Jun 10 2014) RHEL32 ******            
 ******  
 **mos characterization

 ****** temperature-adjusted values tnom=  25.000 temp= 110.000 ******

 constants  - temp             kt               vt               gapsi            ni
            3.831e+02        5.290e-21        3.302e-02        1.090e+00        3.289e+18      

 *** resistors
    name        eff val        eff val(ac)



 *** mosfet element parameters
 name             rd eff           rs eff           cdsat            cssat              vto                beta


        0:m0                0.000e+00        0.000e+00        1.000e-14        1.951e-12       -1.235e-29       -1.235e-29      
        0:m1                0.000e+00        0.000e+00        1.000e-14        1.951e-12       -1.235e-29       -1.235e-29      
 ******  
 **mos characterization

 ****** dc transfer curves tnom=  25.000 temp= 110.000 ******
x

      len!      current 1    param        lx18         lx18       
                    m0        -1*i1(m1)       m0           m1     
  4.5000e-08    4.164e-04    1.183e-04    1.426e-16    1.552e-16  
  5.0000e-08    3.283e-04    7.632e-05    1.803e-16    1.959e-16  
  5.5000e-08    2.744e-04    5.624e-05    2.178e-16    2.364e-16  
  6.0000e-08    2.375e-04    4.466e-05    2.552e-16    2.767e-16  
  6.5000e-08    2.103e-04    3.713e-05    2.925e-16    3.169e-16  
  7.0000e-08    1.891e-04    3.184e-05    3.295e-16    3.569e-16  
  7.5000e-08    1.721e-04    2.790e-05    3.665e-16    3.967e-16  
  8.0000e-08    1.580e-04    2.485e-05    4.033e-16    4.364e-16  
  8.5000e-08    1.461e-04    2.242e-05    4.399e-16    4.760e-16  
  9.0000e-08    1.360e-04    2.043e-05    4.765e-16    5.154e-16  
  9.5000e-08    1.272e-04    1.877e-05    5.129e-16    5.547e-16  
  1.0000e-07    1.195e-04    1.736e-05    5.492e-16    5.938e-16  
  1.0500e-07    1.127e-04    1.615e-05    5.854e-16    6.329e-16  
  1.1000e-07    1.067e-04    1.510e-05    6.216e-16    6.719e-16  
  1.1500e-07    1.012e-04    1.418e-05    6.576e-16    7.107e-16  
  1.2000e-07    9.632e-05    1.337e-05    6.936e-16    7.495e-16  
  1.2500e-07    9.188e-05    1.264e-05    7.295e-16    7.882e-16  
  1.3000e-07    8.783e-05    1.199e-05    7.653e-16    8.268e-16  
  1.3500e-07    8.412e-05    1.141e-05    8.010e-16    8.653e-16  
  1.4000e-07    8.071e-05    1.088e-05    8.367e-16    9.037e-16  
  1.4500e-07    7.758e-05    1.039e-05    8.723e-16    9.421e-16  
  1.5000e-07    7.467e-05    9.952e-06    9.078e-16    9.804e-16  
  1.5500e-07    7.198e-05    9.546e-06    9.433e-16    1.019e-15  
  1.6000e-07    6.947e-05    9.172e-06    9.788e-16    1.057e-15  
  1.6500e-07    6.714e-05    8.826e-06    1.014e-15    1.095e-15  
  1.7000e-07    6.495e-05    8.506e-06    1.049e-15    1.133e-15  
  1.7500e-07    6.291e-05    8.207e-06    1.085e-15    1.171e-15  
  1.8000e-07    6.098e-05    7.930e-06    1.120e-15    1.209e-15  
  1.8500e-07    5.918e-05    7.670e-06    1.155e-15    1.247e-15  
  1.9000e-07    5.747e-05    7.427e-06    1.190e-15    1.285e-15  
  1.9500e-07    5.586e-05    7.199e-06    1.225e-15    1.323e-15  
  2.0000e-07    5.434e-05    6.984e-06    1.261e-15    1.360e-15  
