Using: /usr/local/apps/synopsys/hspice/linux/hspice mosfet_g.sp
 ****** HSPICE -- I-2013.12-SP2-1 32-BIT (Jun 10 2014) RHEL32 ******            
  Copyright (C) 2014 Synopsys, Inc. All Rights Reserved.                        
  Unpublished-rights reserved under US copyright laws.
  This program is protected by law and is subject to the
  terms and conditions of the license agreement from Synopsys.
  Use of this program is your acceptance to be bound by the
  license agreement. HSPICE is the trademark of Synopsys, Inc.
  Input File: mosfet_g.sp                                                       
  Command line options: mosfet_g.sp
 lic:  
 lic: FLEXlm: v10.9.8 
 lic: USER:   niels538             HOSTNAME: ece-brienz 
 lic: HOSTID: 14feb5f0ac13         PID:      40680 
 lic: Using FLEXlm license file: 
 lic: 27020@synopsys.cse.umn.edu 
 lic: Checkout 1 hspice 
 lic: License/Maintenance for hspice will expire on 19-dec-2016/2015.06 
 lic: 18(in_use)/50(total) FLOATING license(s) on SERVER 27020@synopsys.cse.umn.edu 
 lic:   
 Init: read install configuration file: /usr/local/apps/synopsys/hspice/meta.cfg
  **warning** (mosfet_g.sp:11) c        is not level=   3 model parameter. Parameter has been ignored.
 scientific notation:
 a=10**-18  f=10**-15  p=10**-12  n=10**-9  u=10**-6
 m=10**-3   k=10**3    x=10**6    g=10**9 


 circuit parameter definitions
  parameter          =  value 





 constants  - tnom         kt           vt           gapsi        ni
            298.15000    4.1163e-21    25.69184m     1.11562    1.2565e+16 
1****** HSPICE -- I-2013.12-SP2-1 32-BIT (Jun 10 2014) RHEL32 ******            
 ******  
 mosfet i-v curve

 ****** mos   model parameters tnom=  25.000 temp=  25.000 ******
 ***************************************************************************
 *** common model parameters  model name:   0:cmosn    model type:nmos   ***
 ***************************************************************************
     names  values   units     names  values   units     names  values   units
     -----  ------   -----     -----  ------   -----     -----  ------   -----

   1*** geometry parameters ***
       ld= 100.00f meters      lmlt=   1.00                wd= 233.48n meters 
     wmlt=   1.00                xl=   0.    meters        xw=   0.    meters 
     lref=   0.    meters      wref=   0.    meters      lref=   0.    meters 
     wref=   0.    meters     xlref=   0.    meters     xwref=   0.    meters 
     lmin=   0.    meters      wmin=   0.    meters      lmax=   0.    meters 
     wmax=   0.    meters 

   2*** threshold voltage parameters ***
      vto= 764.09m volts        nss=   0.    1/cm**2      tpg=   1.00         
      phi= 700.00m volts      gamma= 548.36m v**0.5      bulk=  gnd           
    ngate=   0.    cm**3       nsub= 1.0e+17 1/cm**3   delvto=   0.    volts  

   3*** gate overlap capacitance parameters ***
     cgbo= 100.00p f/meter     cgdo= 215.00p f/meter     cgso= 215.00p f/meter
     meto=   0.    meters 

   4*** gate capacitance parameters ***
    capop=   2.00               cf1=   0.    volts        cf2= 100.00m volts  
      cf3=   1.00  volts        cf4=  50.00               cf5= 666.67m        
      cf6= 500.00               xqc= 500.00m              tox=  14.00n meters 
      cox=   2.47m f/m**2 

   5*** diffusion parasitic parameters ***
      acm=   0.                  is=  10.00f amps          js=   0.    a/m**2 
      jsw=   0.    amp/m        nds=   1.00               cbd=   0.    farad  
      cbs=   0.    farad         cj= 952.86u f/m**2      cjsw= 314.75p f/m    
   cjgate= 314.75p f/m           mj= 435.90m             mjsw= 197.77m        
       pb= 914.04m volts        php= 914.04m volts         tt=   0.    secs   
     hdif=   0.    meters      ldif=   0.    meters        rd=   0.    ohms   
       rs=   0.    ohms         rsh=   7.51m ohms/sq       fc=   0.           
    alpha=   0.                 vcr=   0.    volts      iirat=   0.           
      rdc=   0.    ohms         rsc=   0.    ohms           n=   1.00         
     vnds=  -1.00  volts  

   6*** temperature effect parameters ***
     tlev=   0.               tlevc=   0.                  eg=   1.11  ev     
     gap1= 702.00u ev/deg      gap2=   1.11k deg          xti=   0.           
      bex=  -1.50               tcv=   0.    v/deg k      trd=   0.    /deg   
      trs=   0.    /deg         cta=   0.    /deg         ctp=   0.    /deg   

   7*** noise parameters ***
       kf=   0.                  af=   1.00              nlev=   2.00         
   gdsnoi=   1.00         

   ***  level  3  model parameters  ***

    delta=   3.05               eta=   3.16u            kappa= 300.00m /v     
      nfs= 1.0e+12 1/cm**2    theta= 101.40m /v          vmax= 144.22k m/sec  
       xj= 300.00n meters        uo= 662.70 cm**2/vs       kp= 125.94u a/v**2 
    deriv=   1.00         
1****** HSPICE -- I-2013.12-SP2-1 32-BIT (Jun 10 2014) RHEL32 ******            
 ******  
 mosfet i-v curve

 ****** circuit element summary tnom=  25.000 temp=  25.000 ******


 **** independent sources

     name         node1        node2      dc volt    ac mag    ac phase    type
  vbs  3                 0                    1.0000     0.         0.      dc   
  vds  2                 0                  100.0000m    0.         0.      dc   
  vgs  1                 0                    3.0000     0.         0.      dc   


 **** mosfets
  
  
                             
 element name        0:m1    
 drain               0:2     
 gate                0:1     
 source              0:0     
 bulk                0:3     
 model               0:cmosn 
 w eff               9.5330u 
 l eff               1.5000u 
 rd eff              0.      
 rs eff              0.      
 cdsat              10.0000f 
 cssat              10.0000f 
 capbd               0.      
 capbs               0.      
 temp               25.0000  
 aic                         
 m                   1.0000  
 w drawn            10.0000u 
 l drawn             1.5000u 
  
  
1****** HSPICE -- I-2013.12-SP2-1 32-BIT (Jun 10 2014) RHEL32 ******            
 ******  
 mosfet i-v curve

 ****** element node table
                                                                                      
 0                vbs              vds              vgs              m1:s             
 1                vgs              m1:g                                               
 2                vds              m1:d                                               
 3                vbs              m1:b                                               
 *****************************************************************
 ******  option summary
 ******
 runlvl  = 3         bypass  = 2         
 ******  
 mosfet i-v curve

 ****** dc transfer curves tnom=  25.000 temp=  25.000 ******

   *** source        0:vbs =    0.            ***

x

        volt    voltage      current 1  
                     1           m1     
    0.            0.         312.8106f  
    5.00000m      5.0000m    324.4343f  
   10.00000m     10.0000m    337.2664f  
   15.00000m     15.0000m    351.4325f  
   20.00000m     20.0000m    367.0713f  
   25.00000m     25.0000m    384.3359f  
   30.00000m     30.0000m    403.3953f  
   35.00000m     35.0000m    424.4361f  
   40.00000m     40.0000m    447.6642f  
   45.00000m     45.0000m    473.3072f  
   50.00000m     50.0000m    501.6159f  
   55.00000m     55.0000m    532.8676f  
   60.00000m     60.0000m    567.3682f  
   65.00000m     65.0000m    605.4554f  
   70.00000m     70.0000m    647.5021f  
   75.00000m     75.0000m    693.9200f  
   80.00000m     80.0000m    745.1634f  
   85.00000m     85.0000m    801.7340f  
   90.00000m     90.0000m    864.1857f  
   95.00000m     95.0000m    933.1297f  
  100.00000m    100.0000m      1.0092p  
  105.00000m    105.0000m      1.0933p  
  110.00000m    110.0000m      1.1860p  
  115.00000m    115.0000m      1.2884p  
  120.00000m    120.0000m      1.4015p  
  125.00000m    125.0000m      1.5263p  
  130.00000m    130.0000m      1.6640p  
  135.00000m    135.0000m      1.8161p  
  140.00000m    140.0000m      1.9841p  
  145.00000m    145.0000m      2.1694p  
  150.00000m    150.0000m      2.3741p  
  155.00000m    155.0000m      2.6000p  
  160.00000m    160.0000m      2.8494p  
  165.00000m    165.0000m      3.1247p  
  170.00000m    170.0000m      3.4286p  
  175.00000m    175.0000m      3.7642p  
  180.00000m    180.0000m      4.1346p  
  185.00000m    185.0000m      4.5435p  
  190.00000m    190.0000m      4.9949p  
  195.00000m    195.0000m      5.4933p  
  200.00000m    200.0000m      6.0435p  
  205.00000m    205.0000m      6.6509p  
  210.00000m    210.0000m      7.3214p  
  215.00000m    215.0000m      8.0616p  
  220.00000m    220.0000m      8.8788p  
  225.00000m    225.0000m      9.7810p  
  230.00000m    230.0000m     10.7769p  
  235.00000m    235.0000m     11.8763p  
  240.00000m    240.0000m     13.0901p  
  245.00000m    245.0000m     14.4300p  
  250.00000m    250.0000m     15.9093p  
  255.00000m    255.0000m     17.5423p  
  260.00000m    260.0000m     19.3450p  
  265.00000m    265.0000m     21.3352p  
  270.00000m    270.0000m     23.5323p  
  275.00000m    275.0000m     25.9578p  
  280.00000m    280.0000m     28.6355p  
  285.00000m    285.0000m     31.5915p  
  290.00000m    290.0000m     34.8548p  
  295.00000m    295.0000m     38.4574p  
  300.00000m    300.0000m     42.4345p  
  305.00000m    305.0000m     46.8250p  
  310.00000m    310.0000m     51.6720p  
  315.00000m    315.0000m     57.0229p  
  320.00000m    320.0000m     62.9300p  
  325.00000m    325.0000m     69.4512p  
  330.00000m    330.0000m     76.6504p  
  335.00000m    335.0000m     84.5980p  
  340.00000m    340.0000m     93.3718p  
  345.00000m    345.0000m    103.0578p  
  350.00000m    350.0000m    113.7506p  
  355.00000m    355.0000m    125.5551p  
  360.00000m    360.0000m    138.5868p  
  365.00000m    365.0000m    152.9732p  
  370.00000m    370.0000m    168.8553p  
  375.00000m    375.0000m    186.3884p  
  380.00000m    380.0000m    205.7442p  
  385.00000m    385.0000m    227.1123p  
  390.00000m    390.0000m    250.7017p  
  395.00000m    395.0000m    276.7435p  
  400.00000m    400.0000m    305.4925p  
  405.00000m    405.0000m    337.2303p  
  410.00000m    410.0000m    372.2675p  
  415.00000m    415.0000m    410.9471p  
  420.00000m    420.0000m    453.6478p  
  425.00000m    425.0000m    500.7876p  
  430.00000m    430.0000m    552.8280p  
  435.00000m    435.0000m    610.2785p  
  440.00000m    440.0000m    673.7015p  
  445.00000m    445.0000m    743.7178p  
  450.00000m    450.0000m    821.0130p  
  455.00000m    455.0000m    906.3437p  
  460.00000m    460.0000m      1.0005n  
  465.00000m    465.0000m      1.1045n  
  470.00000m    470.0000m      1.2193n  
  475.00000m    475.0000m      1.3461n  
  480.00000m    480.0000m      1.4860n  
  485.00000m    485.0000m      1.6405n  
  490.00000m    490.0000m      1.8110n  
  495.00000m    495.0000m      1.9992n  
  500.00000m    500.0000m      2.2071n  
  505.00000m    505.0000m      2.4365n  
  510.00000m    510.0000m      2.6897n  
  515.00000m    515.0000m      2.9693n  
  520.00000m    520.0000m      3.2780n  
  525.00000m    525.0000m      3.6188n  
  530.00000m    530.0000m      3.9950n  
  535.00000m    535.0000m      4.4102n  
  540.00000m    540.0000m      4.8687n  
  545.00000m    545.0000m      5.3748n  
  550.00000m    550.0000m      5.9336n  
  555.00000m    555.0000m      6.5504n  
  560.00000m    560.0000m      7.2314n  
  565.00000m    565.0000m      7.9831n  
  570.00000m    570.0000m      8.8130n  
  575.00000m    575.0000m      9.7292n  
  580.00000m    580.0000m     10.7406n  
  585.00000m    585.0000m     11.8571n  
  590.00000m    590.0000m     13.0898n  
  595.00000m    595.0000m     14.4505n  
  600.00000m    600.0000m     15.9528n  
  605.00000m    605.0000m     17.6112n  
  610.00000m    610.0000m     19.4420n  
  615.00000m    615.0000m     21.4631n  
  620.00000m    620.0000m     23.6944n  
  625.00000m    625.0000m     26.1576n  
  630.00000m    630.0000m     28.8769n  
  635.00000m    635.0000m     31.8789n  
  640.00000m    640.0000m     35.1930n  
  645.00000m    645.0000m     38.8516n  
  650.00000m    650.0000m     42.8905n  
  655.00000m    655.0000m     47.3494n  
  660.00000m    660.0000m     52.2717n  
  665.00000m    665.0000m     57.7058n  
  670.00000m    670.0000m     63.7049n  
  675.00000m    675.0000m     70.3275n  
  680.00000m    680.0000m     77.6387n  
  685.00000m    685.0000m     85.7099n  
  690.00000m    690.0000m     94.6202n  
  695.00000m    695.0000m    104.4567n  
  700.00000m    700.0000m    115.3159n  
  705.00000m    705.0000m    127.3040n  
  710.00000m    710.0000m    140.5384n  
  715.00000m    715.0000m    155.1486n  
  720.00000m    720.0000m    171.2776n  
  725.00000m    725.0000m    189.0834n  
  730.00000m    730.0000m    208.7403n  
  735.00000m    735.0000m    230.4407n  
  740.00000m    740.0000m    254.3970n  
  745.00000m    745.0000m    280.8438n  
  750.00000m    750.0000m    310.0400n  
  755.00000m    755.0000m    342.2714n  
  760.00000m    760.0000m    377.8536n  
  765.00000m    765.0000m    417.1348n  
  770.00000m    770.0000m    460.4996n  
  775.00000m    775.0000m    508.3726n  
  780.00000m    780.0000m    561.2224n  
  785.00000m    785.0000m    619.5665n  
  790.00000m    790.0000m    683.9759n  
  795.00000m    795.0000m    755.0812n  
  800.00000m    800.0000m    833.5786n  
  805.00000m    805.0000m    984.1176n  
  810.00000m    810.0000m      1.1717u  
  815.00000m    815.0000m      1.3753u  
  820.00000m    820.0000m      1.5948u  
  825.00000m    825.0000m      1.8301u  
  830.00000m    830.0000m      2.0811u  
  835.00000m    835.0000m      2.3478u  
  840.00000m    840.0000m      2.6301u  
  845.00000m    845.0000m      2.9278u  
  850.00000m    850.0000m      3.2410u  
  855.00000m    855.0000m      3.5694u  
  860.00000m    860.0000m      3.9131u  
  865.00000m    865.0000m      4.2720u  
  870.00000m    870.0000m      4.6460u  
  875.00000m    875.0000m      5.0273u  
  880.00000m    880.0000m      5.4083u  
  885.00000m    885.0000m      5.7889u  
  890.00000m    890.0000m      6.1691u  
  895.00000m    895.0000m      6.5490u  
  900.00000m    900.0000m      6.9285u  
  905.00000m    905.0000m      7.3076u  
  910.00000m    910.0000m      7.6864u  
  915.00000m    915.0000m      8.0648u  
  920.00000m    920.0000m      8.4428u  
  925.00000m    925.0000m      8.8204u  
  930.00000m    930.0000m      9.1977u  
  935.00000m    935.0000m      9.5747u  
  940.00000m    940.0000m      9.9512u  
  945.00000m    945.0000m     10.3274u  
  950.00000m    950.0000m     10.7033u  
  955.00000m    955.0000m     11.0788u  
  960.00000m    960.0000m     11.4539u  
  965.00000m    965.0000m     11.8286u  
  970.00000m    970.0000m     12.2030u  
  975.00000m    975.0000m     12.5771u  
  980.00000m    980.0000m     12.9507u  
  985.00000m    985.0000m     13.3240u  
  990.00000m    990.0000m     13.6970u  
  995.00000m    995.0000m     14.0696u  
    1.00000       1.0000      14.4418u  
    1.00500       1.0050      14.8137u  
    1.01000       1.0100      15.1852u  
    1.01500       1.0150      15.5564u  
    1.02000       1.0200      15.9272u  
    1.02500       1.0250      16.2977u  
    1.03000       1.0300      16.6678u  
    1.03500       1.0350      17.0375u  
    1.04000       1.0400      17.4069u  
    1.04500       1.0450      17.7759u  
    1.05000       1.0500      18.1446u  
    1.05500       1.0550      18.5130u  
    1.06000       1.0600      18.8810u  
    1.06500       1.0650      19.2486u  
    1.07000       1.0700      19.6159u  
    1.07500       1.0750      19.9828u  
    1.08000       1.0800      20.3494u  
    1.08500       1.0850      20.7156u  
    1.09000       1.0900      21.0815u  
    1.09500       1.0950      21.4470u  
    1.10000       1.1000      21.8122u  
    1.10500       1.1050      22.1771u  
    1.11000       1.1100      22.5416u  
    1.11500       1.1150      22.9057u  
    1.12000       1.1200      23.2695u  
    1.12500       1.1250      23.6330u  
    1.13000       1.1300      23.9961u  
    1.13500       1.1350      24.3589u  
    1.14000       1.1400      24.7213u  
    1.14500       1.1450      25.0834u  
    1.15000       1.1500      25.4451u  
    1.15500       1.1550      25.8065u  
    1.16000       1.1600      26.1676u  
    1.16500       1.1650      26.5283u  
    1.17000       1.1700      26.8886u  
    1.17500       1.1750      27.2487u  
    1.18000       1.1800      27.6084u  
    1.18500       1.1850      27.9677u  
    1.19000       1.1900      28.3267u  
    1.19500       1.1950      28.6854u  
    1.20000       1.2000      29.0437u  
    1.20500       1.2050      29.4017u  
    1.21000       1.2100      29.7594u  
    1.21500       1.2150      30.1167u  
    1.22000       1.2200      30.4737u  
    1.22500       1.2250      30.8304u  
    1.23000       1.2300      31.1867u  
    1.23500       1.2350      31.5427u  
    1.24000       1.2400      31.8983u  
    1.24500       1.2450      32.2537u  
    1.25000       1.2500      32.6086u  
    1.25500       1.2550      32.9633u  
    1.26000       1.2600      33.3176u  
    1.26500       1.2650      33.6716u  
    1.27000       1.2700      34.0253u  
    1.27500       1.2750      34.3786u  
    1.28000       1.2800      34.7316u  
    1.28500       1.2850      35.0842u  
    1.29000       1.2900      35.4366u  
    1.29500       1.2950      35.7886u  
    1.30000       1.3000      36.1403u  
    1.30500       1.3050      36.4916u  
    1.31000       1.3100      36.8426u  
    1.31500       1.3150      37.1933u  
    1.32000       1.3200      37.5437u  
    1.32500       1.3250      37.8937u  
    1.33000       1.3300      38.2435u  
    1.33500       1.3350      38.5928u  
    1.34000       1.3400      38.9419u  
    1.34500       1.3450      39.2907u  
    1.35000       1.3500      39.6391u  
    1.35500       1.3550      39.9872u  
    1.36000       1.3600      40.3349u  
    1.36500       1.3650      40.6824u  
    1.37000       1.3700      41.0295u  
    1.37500       1.3750      41.3763u  
    1.38000       1.3800      41.7228u  
    1.38500       1.3850      42.0690u  
    1.39000       1.3900      42.4148u  
    1.39500       1.3950      42.7603u  
    1.40000       1.4000      43.1055u  
    1.40500       1.4050      43.4504u  
    1.41000       1.4100      43.7950u  
    1.41500       1.4150      44.1392u  
    1.42000       1.4200      44.4831u  
    1.42500       1.4250      44.8268u  
    1.43000       1.4300      45.1701u  
    1.43500       1.4350      45.5130u  
    1.44000       1.4400      45.8557u  
    1.44500       1.4450      46.1980u  
    1.45000       1.4500      46.5401u  
    1.45500       1.4550      46.8818u  
    1.46000       1.4600      47.2232u  
    1.46500       1.4650      47.5643u  
    1.47000       1.4700      47.9051u  
    1.47500       1.4750      48.2455u  
    1.48000       1.4800      48.5857u  
    1.48500       1.4850      48.9255u  
    1.49000       1.4900      49.2650u  
    1.49500       1.4950      49.6042u  
    1.50000       1.5000      49.9431u  
    1.50500       1.5050      50.2817u  
    1.51000       1.5100      50.6200u  
    1.51500       1.5150      50.9580u  
    1.52000       1.5200      51.2957u  
    1.52500       1.5250      51.6330u  
    1.53000       1.5300      51.9701u  
    1.53500       1.5350      52.3068u  
    1.54000       1.5400      52.6432u  
    1.54500       1.5450      52.9794u  
    1.55000       1.5500      53.3152u  
    1.55500       1.5550      53.6507u  
    1.56000       1.5600      53.9859u  
    1.56500       1.5650      54.3208u  
    1.57000       1.5700      54.6554u  
    1.57500       1.5750      54.9897u  
    1.58000       1.5800      55.3237u  
