Using: /usr/local/apps/synopsys/hspice/linux/hspice mosfet.sp
 ****** HSPICE -- I-2013.12-SP2-1 32-BIT (Jun 10 2014) RHEL32 ******            
  Copyright (C) 2014 Synopsys, Inc. All Rights Reserved.                        
  Unpublished-rights reserved under US copyright laws.
  This program is protected by law and is subject to the
  terms and conditions of the license agreement from Synopsys.
  Use of this program is your acceptance to be bound by the
  license agreement. HSPICE is the trademark of Synopsys, Inc.
  Input File: mosfet.sp                                                         
  Command line options: mosfet.sp
 lic:  
 lic: FLEXlm: v10.9.8 
 lic: USER:   niels538             HOSTNAME: ece-brienz 
 lic: HOSTID: 14feb5f0ac13         PID:      23015 
 lic: Using FLEXlm license file: 
 lic: 27020@synopsys.cse.umn.edu 
 lic: Checkout 1 hspice 
 lic: License/Maintenance for hspice will expire on 19-dec-2016/2015.06 
 lic: 18(in_use)/50(total) FLOATING license(s) on SERVER 27020@synopsys.cse.umn.edu 
 lic:   
 Init: read install configuration file: /usr/local/apps/synopsys/hspice/meta.cfg
  **warning** (mosfet.sp:14) c        is not level=   3 model parameter. Parameter has been ignored.
 scientific notation:
 a=10**-18  f=10**-15  p=10**-12  n=10**-9  u=10**-6
 m=10**-3   k=10**3    x=10**6    g=10**9 


 circuit parameter definitions
  parameter          =  value 





 constants  - tnom         kt           vt           gapsi        ni
            298.15000    4.1163e-21    25.69184m     1.11562    1.2565e+16 
1****** HSPICE -- I-2013.12-SP2-1 32-BIT (Jun 10 2014) RHEL32 ******            
 ******  
 mosfet i-v curve

 ****** mos   model parameters tnom=  25.000 temp=  25.000 ******
 ***************************************************************************
 *** common model parameters  model name:   0:cmosn    model type:nmos   ***
 ***************************************************************************
     names  values   units     names  values   units     names  values   units
     -----  ------   -----     -----  ------   -----     -----  ------   -----

   1*** geometry parameters ***
       ld= 100.00f meters      lmlt=   1.00                wd= 233.48n meters 
     wmlt=   1.00                xl=   0.    meters        xw=   0.    meters 
     lref=   0.    meters      wref=   0.    meters      lref=   0.    meters 
     wref=   0.    meters     xlref=   0.    meters     xwref=   0.    meters 
     lmin=   0.    meters      wmin=   0.    meters      lmax=   0.    meters 
     wmax=   0.    meters 

   2*** threshold voltage parameters ***
      vto= 764.09m volts        nss=   0.    1/cm**2      tpg=   1.00         
      phi= 700.00m volts      gamma= 548.36m v**0.5      bulk=  gnd           
    ngate=   0.    cm**3       nsub= 1.0e+17 1/cm**3   delvto=   0.    volts  

   3*** gate overlap capacitance parameters ***
     cgbo= 100.00p f/meter     cgdo= 215.00p f/meter     cgso= 215.00p f/meter
     meto=   0.    meters 

   4*** gate capacitance parameters ***
    capop=   2.00               cf1=   0.    volts        cf2= 100.00m volts  
      cf3=   1.00  volts        cf4=  50.00               cf5= 666.67m        
      cf6= 500.00               xqc= 500.00m              tox=  14.00n meters 
      cox=   2.47m f/m**2 

   5*** diffusion parasitic parameters ***
      acm=   0.                  is=  10.00f amps          js=   0.    a/m**2 
      jsw=   0.    amp/m        nds=   1.00               cbd=   0.    farad  
      cbs=   0.    farad         cj= 952.86u f/m**2      cjsw= 314.75p f/m    
   cjgate= 314.75p f/m           mj= 435.90m             mjsw= 197.77m        
       pb= 914.04m volts        php= 914.04m volts         tt=   0.    secs   
     hdif=   0.    meters      ldif=   0.    meters        rd=   0.    ohms   
       rs=   0.    ohms         rsh=   7.51m ohms/sq       fc=   0.           
    alpha=   0.                 vcr=   0.    volts      iirat=   0.           
      rdc=   0.    ohms         rsc=   0.    ohms           n=   1.00         
     vnds=  -1.00  volts  

   6*** temperature effect parameters ***
     tlev=   0.               tlevc=   0.                  eg=   1.11  ev     
     gap1= 702.00u ev/deg      gap2=   1.11k deg          xti=   0.           
      bex=  -1.50               tcv=   0.    v/deg k      trd=   0.    /deg   
      trs=   0.    /deg         cta=   0.    /deg         ctp=   0.    /deg   

   7*** noise parameters ***
       kf=   0.                  af=   1.00              nlev=   2.00         
   gdsnoi=   1.00         

   ***  level  3  model parameters  ***

    delta=   3.05               eta=   3.16u            kappa= 300.00m /v     
      nfs= 1.0e+12 1/cm**2    theta= 101.40m /v          vmax= 144.22k m/sec  
       xj= 300.00n meters        uo= 662.70 cm**2/vs       kp= 125.94u a/v**2 
    deriv=   1.00         
1****** HSPICE -- I-2013.12-SP2-1 32-BIT (Jun 10 2014) RHEL32 ******            
 ******  
 mosfet i-v curve

 ****** circuit element summary tnom=  25.000 temp=  25.000 ******


 **** resistors

  
  
                             
 element name        0:rd    
 node1               0:2     
 node2               0:3     
 model                       
 res eff            10.0000u 
 tc1                 0.      
 tc2                 0.      
 scale               1.0000  
 m                   1.0000  
 ac                 10.0000u 
 temp               25.0000  
 l                   0.      
 w                   0.      
 cap                 0.      
 noise            1.000e+00  


 **** independent sources

     name         node1        node2      dc volt    ac mag    ac phase    type
  vds  2                 0                    1.0000     0.         0.      dc   
  vgs  1                 0                    3.0000     0.         0.      dc   


 **** mosfets
  
  
                             
 element name        0:m1    
 drain               0:3     
 gate                0:1     
 source              0:0     
 bulk                0:0     
 model               0:cmosn 
 w eff               9.5330u 
 l eff               1.5000u 
 rd eff              0.      
 rs eff              0.      
 cdsat              10.0000f 
 cssat              10.0000f 
 capbd               0.      
 capbs               0.      
 temp               25.0000  
 aic                         
 m                   1.0000  
 w drawn            10.0000u 
 l drawn             1.5000u 
  
  
1****** HSPICE -- I-2013.12-SP2-1 32-BIT (Jun 10 2014) RHEL32 ******            
 ******  
 mosfet i-v curve

 ****** element node table
                                                                                      
 0                vds              vgs              m1:s             m1:b             
 1                vgs              m1:g                                               
 2                rd               vds                                                
 3                rd               m1:d                                               
 *****************************************************************
 ******  option summary
 ******
 runlvl  = 3         bypass  = 2         
 ******  
 mosfet i-v curve

 ****** dc transfer curves tnom=  25.000 temp=  25.000 ******

   *** source        0:vgs =    0.            ***

x

        volt    voltage      current    
                     3           rd     
    0.            0.           0.       
  100.00000m    100.0000m     -1.3878p  
  200.00000m    200.0000m     -2.7756p  
  300.00000m    300.0000m      0.       
  400.00000m    400.0000m     -5.5511p  
  500.00000m    500.0000m      0.       
  600.00000m    600.0000m      0.       
  700.00000m    700.0000m      0.       
  800.00000m    800.0000m    -11.1022p  
  900.00000m    900.0000m      0.       
    1.00000       1.0000       0.       
    1.10000       1.1000       0.       
    1.20000       1.2000       0.       
    1.30000       1.3000       0.       
    1.40000       1.4000       0.       
    1.50000       1.5000       0.       
    1.60000       1.6000     -22.2045p  
    1.70000       1.7000       0.       
    1.80000       1.8000       0.       
    1.90000       1.9000     -22.2045p  
    2.00000       2.0000       0.       
    2.10000       2.1000       0.       
    2.20000       2.2000       0.       
    2.30000       2.3000       0.       
    2.40000       2.4000       0.       
    2.50000       2.5000       0.       
    2.60000       2.6000       0.       
    2.70000       2.7000       0.       
    2.80000       2.8000       0.       
    2.90000       2.9000       0.       
    3.00000       3.0000       0.       
    3.10000       3.1000       0.       
    3.20000       3.2000     -44.4089p  
    3.30000       3.3000       0.       
    3.40000       3.4000       0.       
    3.50000       3.5000       0.       
    3.60000       3.6000       0.       
    3.70000       3.7000       0.       
    3.80000       3.8000     -44.4089p  
    3.90000       3.9000       0.       
    4.00000       4.0000       0.       
    4.10000       4.1000       0.       
    4.20000       4.2000       0.       
    4.30000       4.3000       0.       
    4.40000       4.4000       0.       
    4.50000       4.5000       0.       
    4.60000       4.6000       0.       
    4.70000       4.7000       0.       
    4.80000       4.8000       0.       
    4.90000       4.9000       0.       
    5.00000       5.0000       0.       
    5.10000       5.1000       0.       
    5.20000       5.2000       0.       
    5.30000       5.3000       0.       
    5.40000       5.4000       0.       
    5.50000       5.5000       0.       
    5.60000       5.6000       0.       
    5.70000       5.7000      88.8178p  
    5.80000       5.8000       0.       
    5.90000       5.9000     -88.8178p  
    6.00000       6.0000       0.       
    6.10000       6.1000       0.       
    6.20000       6.2000       0.       
    6.30000       6.3000       0.       
    6.40000       6.4000     -88.8178p  
    6.50000       6.5000       0.       
    6.60000       6.6000       0.       
    6.70000       6.7000       0.       
    6.80000       6.8000       0.       
    6.90000       6.9000      88.8178p  
    7.00000       7.0000       0.       
    7.10000       7.1000     -88.8178p  
    7.20000       7.2000       0.       
    7.30000       7.3000       0.       
    7.40000       7.4000       0.       
    7.50000       7.5000       0.       
    7.60000       7.6000     -88.8178p  
    7.70000       7.7000       0.       
    7.80000       7.8000       0.       
    7.90000       7.9000       0.       
    8.00000       8.0000       0.       
    8.10000       8.1000       0.       
    8.20000       8.2000       0.       
    8.30000       8.3000       0.       
    8.40000       8.4000       0.       
    8.50000       8.5000       0.       
    8.60000       8.6000       0.       
    8.70000       8.7000       0.       
    8.80000       8.8000       0.       
    8.90000       8.9000       0.       
    9.00000       9.0000       0.       
    9.10000       9.1000       0.       
    9.20000       9.2000       0.       
    9.30000       9.3000       0.       
    9.40000       9.4000       0.       
    9.50000       9.5000       0.       
    9.60000       9.6000       0.       
    9.70000       9.7000       0.       
    9.80000       9.8000       0.       
    9.90000       9.9000       0.       
   10.00000      10.0000       0.       
y
 ******  
 mosfet i-v curve

 ****** dc transfer curves tnom=  25.000 temp=  25.000 ******

   *** source        0:vgs =    2.0000        ***

x

        volt    voltage      current    
                     3           rd     
    0.            0.           0.       
  100.00000m    100.0000m     82.3339u  
  200.00000m    200.0000m    152.5056u  
  300.00000m    300.0000m    211.4323u  
  400.00000m    400.0000m    259.9412u  
  500.00000m    500.0000m    298.7804u  
  600.00000m    600.0000m    328.6280u  
  700.00000m    700.0000m    350.1001u  
  800.00000m    800.0000m    363.7578u  
  900.00000m    900.0000m    370.1133u  
    1.00000       1.0000     370.9399u  
    1.10000       1.1000     371.5195u  
    1.20000       1.2000     372.0852u  
    1.30000       1.3000     372.6380u  
    1.40000       1.4000     373.1790u  
    1.50000       1.5000     373.7089u  
    1.60000       1.6000     374.2284u  
    1.70000       1.7000     374.7383u  
    1.80000       1.8000     375.2392u  
    1.90000       1.9000     375.7316u  
    2.00000       2.0000     376.2159u  
    2.10000       2.1000     376.6926u  
    2.20000       2.2000     377.1621u  
    2.30000       2.3000     377.6249u  
    2.40000       2.4000     378.0812u  
    2.50000       2.5000     378.5313u  
    2.60000       2.6000     378.9755u  
    2.70000       2.7000     379.4141u  
    2.80000       2.8000     379.8473u  
    2.90000       2.9000     380.2755u  
    3.00000       3.0000     380.6987u  
    3.10000       3.1000     381.1173u  
    3.20000       3.2000     381.5311u  
    3.30000       3.3000     381.9407u  
    3.40000       3.4000     382.3461u  
    3.50000       3.5000     382.7476u  
    3.60000       3.6000     383.1450u  
    3.70000       3.7000     383.5388u  
    3.80000       3.8000     383.9288u  
    3.90000       3.9000     384.3155u  
    4.00000       4.0000     384.6987u  
    4.10000       4.1000     385.0786u  
    4.20000       4.2000     385.4554u  
    4.30000       4.3000     385.8291u  
    4.40000       4.4000     386.1997u  
    4.50000       4.5000     386.5676u  
    4.60000       4.6000     386.9326u  
    4.70000       4.7000     387.2948u  
    4.80000       4.8000     387.6544u  
    4.90000       4.9000     388.0115u  
    5.00000       5.0000     388.3659u  
    5.10000       5.1000     388.7180u  
    5.20000       5.2000     389.0677u  
    5.30000       5.3000     389.4152u  
    5.40000       5.4000     389.7602u  
    5.50000       5.5000     390.1033u  
    5.60000       5.6000     390.4439u  
    5.70000       5.7000     390.7826u  
    5.80000       5.8000     391.1193u  
    5.90000       5.9000     391.4538u  
    6.00000       6.0000     391.7866u  
    6.10000       6.1000     392.1174u  
    6.20000       6.2000     392.4464u  
    6.30000       6.3000     392.7735u  
    6.40000       6.4000     393.0987u  
    6.50000       6.5000     393.4224u  
    6.60000       6.6000     393.7441u  
    6.70000       6.7000     394.0646u  
    6.80000       6.8000     394.3829u  
    6.90000       6.9000     394.7001u  
    7.00000       7.0000     395.0155u  
    7.10000       7.1000     395.3293u  
    7.20000       7.2000     395.6417u  
    7.30000       7.3000     395.9526u  
    7.40000       7.4000     396.2622u  
    7.50000       7.5000     396.5702u  
    7.60000       7.6000     396.8768u  
    7.70000       7.7000     397.1823u  
    7.80000       7.8000     397.4860u  
    7.90000       7.9000     397.7888u  
    8.00000       8.0000     398.0900u  
    8.10000       8.1000     398.3901u  
    8.20000       8.2000     398.6889u  
    8.30000       8.3000     398.9864u  
    8.40000       8.4000     399.2829u  
    8.50000       8.5000     399.5781u  
    8.60000       8.6000     399.8721u  
    8.70000       8.7000     400.1652u  
    8.80000       8.8000     400.4569u  
    8.90000       8.9000     400.7475u  
    9.00000       9.0000     401.0372u  
    9.10000       9.1000     401.3256u  
    9.20000       9.2000     401.6130u  
    9.30000       9.3000     401.8997u  
    9.40000       9.4000     402.1851u  
    9.50000       9.5000     402.4693u  
    9.60000       9.6000     402.7529u  
    9.70000       9.7000     403.0353u  
    9.80000       9.8000     403.3168u  
    9.90000       9.9000     403.5975u  
   10.00000      10.0000     403.8771u  
y
 ******  
 mosfet i-v curve

 ****** dc transfer curves tnom=  25.000 temp=  25.000 ******

   *** source        0:vgs =    4.0000        ***

x

        volt    voltage      current    
                     3           rd     
    0.            0.           0.       
  100.00000m    100.0000m    187.7489u  
  200.00000m    200.0000m    360.4652u  
  300.00000m    300.0000m    519.1210u  
  400.00000m    400.0000m    664.6060u  
  500.00000m    500.0000m    797.7366u  
  600.00000m    600.0000m    919.2632u  
  700.00000m    700.0000m      1.0299m  
  800.00000m    800.0000m      1.1302m  
  900.00000m    900.0000m      1.2209m  
    1.00000       1.0000       1.3024m  
    1.10000       1.1000       1.3752m  
    1.20000       1.2000       1.4399m  
    1.30000       1.3000       1.4969m  
    1.40000       1.4000       1.5465m  
    1.50000       1.5000       1.5892m  
    1.60000       1.6000       1.6252m  
    1.70000       1.7000       1.6550m  
    1.80000       1.8000       1.6788m  
    1.90000       1.9000       1.6970m  
    2.00000       2.0000       1.7066m  
    2.10000       2.1000       1.7101m  
    2.20000       2.2000       1.7135m  
    2.30000       2.3000       1.7168m  
    2.40000       2.4000       1.7199m  
    2.50000       2.5000       1.7229m  
    2.60000       2.6000       1.7258m  
    2.70000       2.7000       1.7287m  
    2.80000       2.8000       1.7315m  
    2.90000       2.9000       1.7342m  
    3.00000       3.0000       1.7368m  
    3.10000       3.1000       1.7394m  
    3.20000       3.2000       1.7419m  
    3.30000       3.3000       1.7444m  
    3.40000       3.4000       1.7469m  
    3.50000       3.5000       1.7492m  
    3.60000       3.6000       1.7516m  
    3.70000       3.7000       1.7539m  
    3.80000       3.8000       1.7562m  
    3.90000       3.9000       1.7584m  
    4.00000       4.0000       1.7606m  
    4.10000       4.1000       1.7628m  
    4.20000       4.2000       1.7649m  
    4.30000       4.3000       1.7670m  
    4.40000       4.4000       1.7691m  
    4.50000       4.5000       1.7712m  
    4.60000       4.6000       1.7732m  
    4.70000       4.7000       1.7752m  
    4.80000       4.8000       1.7772m  
    4.90000       4.9000       1.7792m  
    5.00000       5.0000       1.7812m  
    5.10000       5.1000       1.7831m  
    5.20000       5.2000       1.7850m  
    5.30000       5.3000       1.7869m  
    5.40000       5.4000       1.7888m  
    5.50000       5.5000       1.7906m  
    5.60000       5.6000       1.7924m  
    5.70000       5.7000       1.7943m  
    5.80000       5.8000       1.7961m  
    5.90000       5.9000       1.7979m  
    6.00000       6.0000       1.7996m  
    6.10000       6.1000       1.8014m  
    6.20000       6.2000       1.8031m  
    6.30000       6.3000       1.8049m  
    6.40000       6.4000       1.8066m  
    6.50000       6.5000       1.8083m  
    6.60000       6.6000       1.8100m  
    6.70000       6.7000       1.8117m  
    6.80000       6.8000       1.8134m  
    6.90000       6.9000       1.8150m  
    7.00000       7.0000       1.8167m  
    7.10000       7.1000       1.8183m  
    7.20000       7.2000       1.8199m  
    7.30000       7.3000       1.8216m  
    7.40000       7.4000       1.8232m  
    7.50000       7.5000       1.8248m  
    7.60000       7.6000       1.8264m  
    7.70000       7.7000       1.8279m  
    7.80000       7.8000       1.8295m  
    7.90000       7.9000       1.8311m  
    8.00000       8.0000       1.8326m  
    8.10000       8.1000       1.8342m  
    8.20000       8.2000       1.8357m  
    8.30000       8.3000       1.8372m  
    8.40000       8.4000       1.8387m  
    8.50000       8.5000       1.8403m  
    8.60000       8.6000       1.8418m  
    8.70000       8.7000       1.8433m  
    8.80000       8.8000       1.8448m  
    8.90000       8.9000       1.8462m  
    9.00000       9.0000       1.8477m  
    9.10000       9.1000       1.8492m  
    9.20000       9.2000       1.8506m  
