Freq.	V(n002)
1.00000000000000e+002	(-2.36194116799734e+000dB,-3.97721862734970e-001°)
1.25892541179417e+002	(-2.36191481072530e+000dB,-5.00707738939422e-001°)
1.58489319246111e+002	(-2.36187304625692e+000dB,-6.30364827997803e-001°)
1.99526231496888e+002	(-2.36180687662441e+000dB,-7.93604510315089e-001°)
2.51188643150958e+002	(-2.36170206156786e+000dB,-9.99133196667125e-001°)
3.16227766016838e+002	(-2.36153608344076e+000dB,-1.25792257709882e+000°)
3.98107170553497e+002	(-2.36127338392365e+000dB,-1.58380706805565e+000°)
5.01187233627272e+002	(-2.36085793286384e+000dB,-1.99424679448844e+000°)
6.30957344480193e+002	(-2.36020174761161e+000dB,-2.51130972200228e+000°)
7.94328234724282e+002	(-2.35916744395842e+000dB,-3.16295106195433e+000°)
1.00000000000000e+003	(-2.35754245929594e+000dB,-3.98470933140677e+000°)
1.25892541179417e+003	(-2.35500292739218e+000dB,-5.02201077686869e+000°)
1.58489319246111e+003	(-2.35106834266787e+000dB,-6.33340436922548e+000°)
1.99526231496888e+003	(-2.34505980556512e+000dB,-7.99528848800101e+000°)
2.51188643150958e+003	(-2.33611002801830e+000dB,-1.01091262343232e+001°)
3.16227766016838e+003	(-2.32337253001196e+000dB,-1.28129160439230e+001°)
3.98107170553498e+003	(-2.30684457174161e+000dB,-1.62999191985969e+001°)
5.01187233627273e+003	(-2.28991461141181e+000dB,-2.08490758506945e+001°)
6.30957344480194e+003	(-2.28646814848630e+000dB,-2.68706118250838e+001°)
7.94328234724282e+003	(-2.33908207873697e+000dB,-3.49548071767217e+001°)
1.00000000000000e+004	(-2.55918266801811e+000dB,-4.58391190817946e+001°)
1.25892541179417e+004	(-3.18557561796359e+000dB,-6.00104012137518e+001°)
1.58489319246111e+004	(-4.56611691285695e+000dB,-7.66241707029637e+001°)
2.00000000000000e+004	(-6.92690467799555e+000dB,-9.29858636716192e+001°)
