Using: /usr/local/apps/synopsys/hspice/linux/hspice cascode.sp
 ****** HSPICE -- I-2013.12-SP2-1 32-BIT (Jun 10 2014) RHEL32 ******            
  Copyright (C) 2014 Synopsys, Inc. All Rights Reserved.                        
  Unpublished-rights reserved under US copyright laws.
  This program is protected by law and is subject to the
  terms and conditions of the license agreement from Synopsys.
  Use of this program is your acceptance to be bound by the
  license agreement. HSPICE is the trademark of Synopsys, Inc.
  Input File: cascode.sp                                                        
  Command line options: cascode.sp
 lic:  
 lic: FLEXlm: v10.9.8 
 lic: USER:   niels538             HOSTNAME: ece-brienz 
 lic: HOSTID: 14feb5f0ac13         PID:      64899 
 lic: Using FLEXlm license file: 
 lic: 27020@synopsys.cse.umn.edu 
 lic: Checkout 1 hspice 
 lic: License/Maintenance for hspice will expire on 19-dec-2016/2015.06 
 lic: 18(in_use)/50(total) FLOATING license(s) on SERVER 27020@synopsys.cse.umn.edu 
 lic:   
 Init: read install configuration file: /usr/local/apps/synopsys/hspice/meta.cfg
  **warning** (cascode.sp:18) c        is not level=   3 model parameter. Parameter has been ignored.
 scientific notation:
 a=10**-18  f=10**-15  p=10**-12  n=10**-9  u=10**-6
 m=10**-3   k=10**3    x=10**6    g=10**9 


 circuit parameter definitions
  parameter          =  value 





 constants  - tnom         kt           vt           gapsi        ni
            298.15000    4.1163e-21    25.69184m     1.11562    1.2565e+16 
1****** HSPICE -- I-2013.12-SP2-1 32-BIT (Jun 10 2014) RHEL32 ******            
 ******  
 active cascode

 ****** mos   model parameters tnom=  25.000 temp=  25.000 ******
 ***************************************************************************
 *** common model parameters  model name:   0:cmosn    model type:nmos   ***
 ***************************************************************************
     names  values   units     names  values   units     names  values   units
     -----  ------   -----     -----  ------   -----     -----  ------   -----

   1*** geometry parameters ***
       ld= 100.00f meters      lmlt=   1.00                wd= 233.48n meters 
     wmlt=   1.00                xl=   0.    meters        xw=   0.    meters 
     lref=   0.    meters      wref=   0.    meters      lref=   0.    meters 
     wref=   0.    meters     xlref=   0.    meters     xwref=   0.    meters 
     lmin=   0.    meters      wmin=   0.    meters      lmax=   0.    meters 
     wmax=   0.    meters 

   2*** threshold voltage parameters ***
      vto= 764.09m volts        nss=   0.    1/cm**2      tpg=   1.00         
      phi= 700.00m volts      gamma= 548.36m v**0.5      bulk=  gnd           
    ngate=   0.    cm**3       nsub= 1.0e+17 1/cm**3   delvto=   0.    volts  

   3*** gate overlap capacitance parameters ***
     cgbo= 100.00p f/meter     cgdo= 215.00p f/meter     cgso= 215.00p f/meter
     meto=   0.    meters 

   4*** gate capacitance parameters ***
    capop=   2.00               cf1=   0.    volts        cf2= 100.00m volts  
      cf3=   1.00  volts        cf4=  50.00               cf5= 666.67m        
      cf6= 500.00               xqc= 500.00m              tox=  14.00n meters 
      cox=   2.47m f/m**2 

   5*** diffusion parasitic parameters ***
      acm=   0.                  is=  10.00f amps          js=   0.    a/m**2 
      jsw=   0.    amp/m        nds=   1.00               cbd=   0.    farad  
      cbs=   0.    farad         cj= 952.86u f/m**2      cjsw= 314.75p f/m    
   cjgate= 314.75p f/m           mj= 435.90m             mjsw= 197.77m        
       pb= 914.04m volts        php= 914.04m volts         tt=   0.    secs   
     hdif=   0.    meters      ldif=   0.    meters        rd=   0.    ohms   
       rs=   0.    ohms         rsh=   7.51m ohms/sq       fc=   0.           
    alpha=   0.                 vcr=   0.    volts      iirat=   0.           
      rdc=   0.    ohms         rsc=   0.    ohms           n=   1.00         
     vnds=  -1.00  volts  

   6*** temperature effect parameters ***
     tlev=   0.               tlevc=   0.                  eg=   1.11  ev     
     gap1= 702.00u ev/deg      gap2=   1.11k deg          xti=   0.           
      bex=  -1.50               tcv=   0.    v/deg k      trd=   0.    /deg   
      trs=   0.    /deg         cta=   0.    /deg         ctp=   0.    /deg   

   7*** noise parameters ***
       kf=   0.                  af=   1.00              nlev=   2.00         
   gdsnoi=   1.00         

   ***  level  3  model parameters  ***

    delta=   3.05               eta=   3.16u            kappa= 300.00m /v     
      nfs= 1.0e+12 1/cm**2    theta= 101.40m /v          vmax= 144.22k m/sec  
       xj= 300.00n meters        uo= 662.70 cm**2/vs       kp= 125.94u a/v**2 
    deriv=   1.00         
1****** HSPICE -- I-2013.12-SP2-1 32-BIT (Jun 10 2014) RHEL32 ******            
 ******  
 active cascode

 ****** circuit element summary tnom=  25.000 temp=  25.000 ******


 **** resistors

  
  
                             
 element name        0:r1    
 node1               0:6     
 node2               0:0     
 model                       
 res eff             1.0000g 
 tc1                 0.      
 tc2                 0.      
 scale               1.0000  
 m                   1.0000  
 ac                  1.0000g 
 temp               25.0000  
 l                   0.      
 w                   0.      
 cap                 0.      
 noise            1.000e+00  


 **** voltage-controlled voltage sources
      name        +             -          dimension  function  scale
        0:eopamp          0:3               0:0              3      poly       1.    


 **** independent sources

     name         node1        node2      dc volt    ac mag    ac phase    type
  vbias  5                 0                    1.5000     0.         0.      dc   
  vdd  4                 0                   10.0000     0.         0.      dc   
  vgain  6                 0                  100.0000     0.         0.      dc   
  vi  1                 0                    2.2500     0.         0.      dc   


 **** mosfets
  
  
                                        
 element name        0:m1       0:m2    
 drain               0:2        0:4     
 gate                0:1        0:3     
 source              0:0        0:2     
 bulk                0:0        0:0     
 model               0:cmosn    0:cmosn 
 w eff               9.5330u    9.5330u 
 l eff               1.5000u    1.5000u 
 rd eff              0.         0.      
 rs eff              0.         0.      
 cdsat              10.0000f   10.0000f 
 cssat              10.0000f   10.0000f 
 capbd               0.         0.      
 capbs               0.         0.      
 temp               25.0000    25.0000  
 aic                                    
 m                   1.0000     1.0000  
 w drawn            10.0000u   10.0000u 
 l drawn             1.5000u    1.5000u 
  
  
1****** HSPICE -- I-2013.12-SP2-1 32-BIT (Jun 10 2014) RHEL32 ******            
 ******  
 active cascode

 ****** element node table
                                                                                      
 0                r1               eopamp           vbias            vdd              
                  vgain            vi               m1:s             m1:b             
                  m2:b             eopamp:-                                           
 1                vi               m1:g                                               
 2                m1:d             m2:s             eopamp:+                          
 3                eopamp           m2:g                                               
 4                vdd              m2:d                                               
 5                vbias            eopamp:+                                           
 6                r1               vgain            eopamp:+                          
 *****************************************************************
 ******  option summary
 ******
 runlvl  = 3         bypass  = 2         
 ******  
 active cascode

 ****** dc transfer curves tnom=  25.000 temp=  25.000 ******

   *** source        0:vgain =    1.0000        ***

x

        volt    voltage      current 1  
                     1           m2     
  500.00000m      2.2500      85.9010u  
  600.00000m      2.2500      86.1313u  
  700.00000m      2.2500      86.1789u  
  800.00000m      2.2500      86.2272u  
  900.00000m      2.2500      86.2751u  
    1.00000       2.2500      86.3225u  
    1.10000       2.2500      86.3695u  
    1.20000       2.2500      86.4160u  
    1.30000       2.2500      86.4622u  
    1.40000       2.2500      86.5079u  
    1.50000       2.2500      86.5533u  
    1.60000       2.2500      86.5983u  
    1.70000       2.2500      86.6429u  
    1.80000       2.2500      86.6871u  
    1.90000       2.2500      86.7311u  
    2.00000       2.2500      86.7746u  
    2.10000       2.2500      86.8179u  
    2.20000       2.2500      86.8608u  
    2.30000       2.2500      86.9034u  
    2.40000       2.2500      86.9457u  
    2.50000       2.2500      86.9878u  
    2.60000       2.2500      87.0295u  
    2.70000       2.2500      87.0709u  
    2.80000       2.2500      87.1121u  
    2.90000       2.2500      87.1530u  
    3.00000       2.2500      87.1936u  
y
 ******  
 active cascode

 ****** dc transfer curves tnom=  25.000 temp=  25.000 ******

   *** source        0:vgain =  251.0000        ***

x

        volt    voltage      current 1  
                     1           m2     
  500.00000m      2.2500     347.0681u  
  600.00000m      2.2500     394.9808u  
  700.00000m      2.2500     431.3494u  
  800.00000m      2.2500     460.2285u  
  900.00000m      2.2500     481.8614u  
    1.00000       2.2500     496.4640u  
    1.10000       2.2500     504.1897u  
    1.20000       2.2500     505.0154u  
    1.30000       2.2500     505.1497u  
    1.40000       2.2500     505.9522u  
    1.50000       2.2500     506.9009u  
    1.60000       2.2500     507.0303u  
    1.70000       2.2500     506.6611u  
    1.80000       2.2500     507.1942u  
    1.90000       2.2500     506.3605u  
    2.00000       2.2500     507.0284u  
    2.10000       2.2500     507.1766u  
    2.20000       2.2500     507.2209u  
    2.30000       2.2500     507.2372u  
    2.40000       2.2500     507.2441u  
    2.50000       2.2500     507.2472u  
    2.60000       2.2500     507.2529u  
    2.70000       2.2500     507.2332u  
    2.80000       2.2500     507.2350u  
    2.90000       2.2500     507.2365u  
    3.00000       2.2500     507.2378u  
y
 ******  
 active cascode

 ****** dc transfer curves tnom=  25.000 temp=  25.000 ******

   *** source        0:vgain =  501.0000        ***

x

        volt    voltage      current 1  
                     1           m2     
  500.00000m      2.2500     347.4763u  
  600.00000m      2.2500     395.5627u  
  700.00000m      2.2500     431.9602u  
  800.00000m      2.2500     460.8629u  
  900.00000m      2.2500     482.5239u  
    1.00000       2.2500     497.1788u  
    1.10000       2.2500     505.0257u  
    1.20000       2.2500     506.1597u  
    1.30000       2.2500     505.1895u  
    1.40000       2.2500     505.9999u  
    1.50000       2.2500     506.8054u  
    1.60000       2.2500     507.1628u  
    1.70000       2.2500     507.2602u  
    1.80000       2.2500     507.2459u  
    1.90000       2.2500     507.2988u  
    2.00000       2.2500     507.0464u  
    2.10000       2.2500     507.2319u  
    2.20000       2.2500     507.2827u  
    2.30000       2.2500     507.3001u  
    2.40000       2.2500     507.3071u  
    2.50000       2.2500     507.3101u  
    2.60000       2.2500     507.3159u  
    2.70000       2.2500     507.2961u  
    2.80000       2.2500     507.2978u  
    2.90000       2.2500     507.2993u  
    3.00000       2.2500     507.3006u  
y
 ******  
 active cascode

 ****** dc transfer curves tnom=  25.000 temp=  25.000 ******

   *** source        0:vgain =  751.0000        ***

x

        volt    voltage      current 1  
                     1           m2     
  500.00000m      2.2500     347.6124u  
  600.00000m      2.2500     395.7577u  
  700.00000m      2.2500     432.1651u  
  800.00000m      2.2500     461.0761u  
  900.00000m      2.2500     482.7474u  
    1.00000       2.2500     497.4216u  
    1.10000       2.2500     505.3141u  
    1.20000       2.2500     506.5657u  
    1.30000       2.2500     503.3730u  
    1.40000       2.2500     506.0186u  
    1.50000       2.2500     506.8005u  
    1.60000       2.2500     507.2006u  
    1.70000       2.2500     507.2933u  
    1.80000       2.2500     507.2649u  
    1.90000       2.2500     507.3241u  
    2.00000       2.2500     507.0492u  
    2.10000       2.2500     507.2500u  
    2.20000       2.2500     507.3033u  
    2.30000       2.2500     507.3212u  
    2.40000       2.2500     507.3282u  
    2.50000       2.2500     507.3312u  
    2.60000       2.2500     507.3370u  
    2.70000       2.2500     507.3171u  
    2.80000       2.2500     507.3189u  
    2.90000       2.2500     507.3204u  
    3.00000       2.2500     507.3216u  
y
 ******  
 active cascode

 ****** dc transfer curves tnom=  25.000 temp=  25.000 ******

   *** source        0:vgain =    1.0010k       ***

x

        volt    voltage      current 1  
                     1           m2     
  500.00000m      2.2500     347.6805u  
  600.00000m      2.2500     395.8554u  
  700.00000m      2.2500     432.2677u  
  800.00000m      2.2500     461.1830u  
  900.00000m      2.2500     482.8596u  
    1.00000       2.2500     497.5440u  
    1.10000       2.2500     505.4602u  
    1.20000       2.2500     506.7736u  
    1.30000       2.2500     503.8216u  
    1.40000       2.2500     506.0285u  
    1.50000       2.2500     506.8077u  
    1.60000       2.2500     507.2019u  
    1.70000       2.2500     507.3092u  
    1.80000       2.2500     507.2735u  
    1.90000       2.2500     507.3369u  
    2.00000       2.2500     507.0498u  
    2.10000       2.2500     507.2590u  
    2.20000       2.2500     507.3136u  
    2.30000       2.2500     507.3317u  
    2.40000       2.2500     507.3387u  
    2.50000       2.2500     507.3417u  
    2.60000       2.2500     507.3476u  
    2.70000       2.2500     507.3276u  
    2.80000       2.2500     507.3294u  
    2.90000       2.2500     507.3309u  
    3.00000       2.2500     507.3322u  
y
 **info** dc convergence successful at Newton-Raphson method 
1****** HSPICE -- I-2013.12-SP2-1 32-BIT (Jun 10 2014) RHEL32 ******            
 ******  
 active cascode

 ****** operating point information tnom=  25.000 temp=  25.000 ******
 ****** operating point status is all       simulation time is     0.     
    node    =voltage      node    =voltage      node    =voltage

 +0:1       =   2.2500  0:2       =   1.4606  0:3       =   3.9383 
 +0:4       =  10.0000  0:5       =   1.5000  0:6       = 100.0000 


 **** voltage sources

 subckt                                              
 element  0:vbias    0:vdd      0:vgain    0:vi      
  volts      1.5000    10.0000   100.0000     2.2500 
  current    0.      -507.0652u -100.0000n    0.     
  power      0.         5.0707m   10.0000u    0.     

     total voltage source power dissipation=    5.0807m       watts



 **** resistors

 subckt             
 element  0:r1      
  r value    1.0000g
  v drop   100.0000 
  current  100.0000n
  power     10.0000u


 **** voltage-controlled voltage sources


 subckt             
 element  0:eopamp  
  volts      3.9383 
  current    0.     





 **** mosfets


 subckt                        
 element  0:m1       0:m2      
 model    0:cmosn    0:cmosn   
 region       Linear   Saturati
  id       507.0652u  507.0652u
  ibs        0.       -14.6062f
  ibd      -14.6062f -100.0000f
  vgs        2.2500     2.4777 
  vds        1.4606     8.5394 
  vbs        0.        -1.4606 
  vth      750.7243m    1.0808 
  vdsat      1.0655     1.0551 
  vod        1.4993     1.3969 
  beta     541.3695u  546.3780u
  gam eff  514.7031m  496.5190m
  gm       559.8462u  609.9537u
  gds        7.9302u    3.8251u
  gmb        0.        99.9809u
  cdtot      3.3173f    2.5516f
  cgtot     29.2307f   28.4435f
  cstot     25.6488f   25.6637f
  cbtot    264.6000a  228.2666a
  cgs       25.6488f   25.6637f
  cgd        3.3173f    2.5516f




          ***** job concluded
1****** HSPICE -- I-2013.12-SP2-1 32-BIT (Jun 10 2014) RHEL32 ******            
 ******  
 active cascode

 ****** job statistics summary tnom=  25.000 temp=  25.000 ******
  
  
 ******  Machine Information  ******
 CPU:
 model name	: Intel(R) Xeon(R) CPU           E5603  @ 1.60GHz
 cpu MHz	: 1596.013
  
 OS:
 Linux version 2.6.32-573.12.1.el6.x86_64 (mockbuild@x86-031.build.eng.bos.redhat.com) (gcc version 4.4.7 20120313 (Red Hat 4.4.7-16) (GCC) ) #1 SMP Mon Nov 23 12:55:32 EST 2015


  ******  HSPICE Threads Information  ******

  Command Line Threads Count :     1
  Available CPU Count        :     8
  Actual Threads Count       :     1


  ******  Circuit Statistics  ******
  # nodes       =       7 # elements   =       8
  # resistors   =       1 # capacitors =       0 # inductors   =       0
  # mutual_inds =       0 # vccs       =       0 # vcvs        =       1
  # cccs        =       0 # ccvs       =       0 # volt_srcs   =       4
  # curr_srcs   =       0 # diodes     =       0 # bjts        =       0
  # jfets       =       0 # mosfets    =       2 # U elements  =       0
  # T elements  =       0 # W elements =       0 # B elements  =       0
  # S elements  =       0 # P elements =       0 # va device   =       0
  # vector_srcs =       0 # N elements =       0


  ******  Runtime Statistics (seconds)  ******

  analysis           time    # points   tot. iter  conv.iter
  op point           0.00           1           6
  dc sweep           0.01         130         353
  readin             0.00
  errchk             0.01
  setup              0.00
  output             0.00


           peak memory used        120.18 megabytes
           total cpu time            0.02 seconds
           total elapsed time        1.62 seconds
           job started at     15:28:48 02/01/2016
           job ended   at     15:28:50 02/01/2016


 lic: Release hspice token(s) 
 lic: total license checkout elapse time:        1.49(s)
