Using: /usr/local/apps/synopsys/hspice/linux/hspice curr.sp
 ****** HSPICE -- I-2013.12-SP2-1 32-BIT (Jun 10 2014) RHEL32 ******            
  Copyright (C) 2014 Synopsys, Inc. All Rights Reserved.                        
  Unpublished-rights reserved under US copyright laws.
  This program is protected by law and is subject to the
  terms and conditions of the license agreement from Synopsys.
  Use of this program is your acceptance to be bound by the
  license agreement. HSPICE is the trademark of Synopsys, Inc.
  Input File: curr.sp                                                           
  Command line options: curr.sp
 lic:  
 lic: FLEXlm: v10.9.8 
 lic: USER:   niels538             HOSTNAME: ECE-Zermatt 
 lic: HOSTID: 14feb5f0a7ff         PID:      27647 
 lic: Using FLEXlm license file: 
 lic: 27020@synopsys.cse.umn.edu 
 lic: Checkout 1 hspice 
 lic: License/Maintenance for hspice will expire on 19-dec-2016/2015.06 
 lic: 6(in_use)/50(total) FLOATING license(s) on SERVER 27020@synopsys.cse.umn.edu 
 lic:   
 Init: read install configuration file: /usr/local/apps/synopsys/hspice/meta.cfg
 scientific notation:
 a=10**-18  f=10**-15  p=10**-12  n=10**-9  u=10**-6
 m=10**-3   k=10**3    x=10**6    g=10**9 


 circuit parameter definitions
  parameter          =  value 

     0:length                                                  = 250.0000n      




 constants  - tnom         kt           vt           gapsi        ni
            298.15000    4.1163e-21    25.69184m     1.11562    1.2565e+16 
1****** HSPICE -- I-2013.12-SP2-1 32-BIT (Jun 10 2014) RHEL32 ******            
 ******  
 opamp! schhweeeet

 ****** mos   model parameters tnom=  25.000 temp=  25.000 ******
 ***************************************************************************
 ***        model parameters  model name:   0:cmosn    model type:nmos   ***
 ***************************************************************************

   *** general parameters ***
    deriv=   0.           

   ***  level 49  model parameters  ***

      hspver=    2006.03               level=         49         
     version=        3.1            paramchk=          0         
      apwarn=          1                lite=          0         
      vgslim=          0             binUnit=          1         
      capMod=          2               xpart=        0.4         
      mobMod=          1              nqsMod=          0         
      stiMod=          0                 elm=          5         
    sfvtflag=          0                 tox=    5.7e-09 meter   
          xj=      1e-07 meter       binflag=          0         
        lmin=          0 meter          lmax=          0 meter   
        wmin=          0 meter          wmax=          0 meter   
        lref=          0 meter          wref=          0 meter   
        lint=1.11652e-09 meter          wint=1.64571e-09 meter   
       lmult=          1               wmult=          1         
          ll=          0                 lln=          1         
          lw=          0                 lwn=          1         
         lwl=          0                  wl=          0         
         wln=          1                  ww=-1.22182e-16         
         wwn=     1.2127                 wwl=          0         
         dwg=-1.49414e-09 m/V             dwb= 1.4591e-08 m/V^1/2 
          xl=      3e-08                  xw=          0         
          a0=    1.31893                 ags=   0.271172 V^-1    
          b0=3.29171e-08 meter            b1=     -1e-07 meter   
        keta= 0.00464575 V^-1           voff=  -0.102605 V       
       ngate=          0 cm^-3           vbx=          0 V       
         vbm=         -3 V                xt=   1.55e-07 meter   
        vth0=    0.43655 V               nch= 2.3549e+17 cm^-3   
        nsub=      6e+16 cm^-3           nlx=1.11146e-07 meter   
      gamma1=          0 V^-1/2       gamma2=          0 V^-1/2  
          k1=   0.391562 V^1/2            k2=  0.0175145         
          k3=      0.001                 k3b=    2.65883 V^-1    
          w0=      1e-07 meter          dvt0= -0.0408321         
        dvt1=  0.0746768                dvt2=   0.307109 V^-1    
       dvt0w=          0 meter^-1      dvt1w=          0 meter^-1
       dvt2w=          0 V^-1           dsub=  0.0214865         
        eta0= 0.00193031                etab=0.000294616 V^-1    
          u0=    407.118 cm^2/V/sec         ua=9.44271e-11 m/V     
          ub=1.09299e-18 (m/V)^2          uc=1.63196e-11 V^-1    
        vsat=     136509 m/sec            a1=          0 v^-1    
          a2=          1               delta=       0.01 V       
        rdsw=    439.956 ohm-um         prwg=  0.0345487 V^-1    
        prwb= -0.0441065 V^-1/2           wr=          1         
        pclm=    1.33879             pdiblc1=   0.480652         
     pdiblc2= 0.00903499             pdiblcb=     -0.001 V^-1    
      pscbe1=9.84329e+09 V/m          pscbe2=2.10878e-09 V/m     
       drout=   0.559322                pvag=    1.00331         
     nfactor=   0.134489                cdsc= 0.00152751 f/m^2   
       cdscb=          0 f/V/m^2       cdscd=          0 f/V/m^2 
         cit=          0 f/m^2        alpha0=          0 m/V     
       beta0=         30 V               dlc=1.11652e-09 meter   
         dwc=1.64571e-09 meter           clc=      1e-07 meter   
         cle=        0.6                cgso=   3.11e-10 f/m     
        cgdo=   3.11e-10 f/m            cgbo=      1e-11 f/m     
        cgsl=          0 f/m            cgdl=          0 f/m     
      ckappa=        0.6                  cf=9.37621e-11 f/m     
        tnom=     300.15 K               kt1=      -0.11 V       
        kt1l=          0                 kt2=      0.022         
         ute=       -1.5                 ua1=   4.31e-09 m/V     
         ub1=  -7.61e-18 (m/V)^2         uc1=   -5.6e-11 m/V^2   
          at=      33000 m/s             prt=          0         
         using Berkeley noise model       noiMod=          1         
        noia=      1e+20                noib=      50000         
        noic=   -1.4e-12                  em=    4.1e+07         
          ef=          1                  af=          1         
          kf=          0              gdsnoi=-1.23457e-29         
         using Hspice diodes            using ACM 
         acm=         3                 hdif=   3.5e-07 meter    
        ldif=         0 meter             js=         0 amp/m^2  
         jsw=         0 amp/m            xti=         0          
           n=         1                   cj=0.00175852 f/m^2    
          mj=  0.457547                   pb=      0.99 V        
        cjsw=4.08506e-10 f/m             mjsw=  0.337407          
         php=      0.99 V               pbsw (not used)           
      cjgate=4.08506e-10 f/m            cjswg (not used)           
       mjswg (not used)                 pbswg (not used)           
        lags=    -0.3012               lketa= -0.0090406         
       wketa= 0.00303597               pvth0=7.14752e-05         
         pk2= -0.0013446               prdsw=   -67.2162         
 ***************************************************************************
 ***        model parameters  model name:   0:cmosp    model type:pmos   ***
 ***************************************************************************

   *** general parameters ***
    deriv=   0.           

   ***  level 49  model parameters  ***

      hspver=    2006.03               level=         49         
     version=        3.1            paramchk=          0         
      apwarn=          1                lite=          0         
      vgslim=          0             binUnit=          1         
      capMod=          2               xpart=        0.4         
      mobMod=          1              nqsMod=          0         
      stiMod=          0                 elm=          5         
    sfvtflag=          0                 tox=    5.7e-09 meter   
          xj=      1e-07 meter       binflag=          0         
        lmin=          0 meter          lmax=          0 meter   
        wmin=          0 meter          wmax=          0 meter   
        lref=          0 meter          wref=          0 meter   
        lint=1.25451e-08 meter          wint=2.52729e-09 meter   
       lmult=          1               wmult=          1         
          ll=          0                 lln=          1         
          lw=          0                 lwn=          1         
         lwl=          0                  wl=          0         
         wln=          1                  ww=          0         
         wwn=          1                 wwl=          0         
         dwg=-3.25395e-08 m/V             dwb=4.92072e-08 m/V^1/2 
          xl=      3e-08                  xw=          0         
          a0=   0.239871                 ags=  0.0943234 V^-1    
          b0=3.21184e-06 meter            b1=      5e-06 meter   
        keta=  0.0312217 V^-1           voff=      -0.15 V       
       ngate=          0 cm^-3           vbx=          0 V       
         vbm=         -3 V                xt=   1.55e-07 meter   
        vth0=  -0.658639 V               nch= 4.1589e+17 cm^-3   
        nsub=      6e+16 cm^-3           nlx=      1e-09 meter   
      gamma1=          0 V^-1/2       gamma2=          0 V^-1/2  
          k1=    0.51999 V^1/2            k2=  0.0357513         
          k3=          0                 k3b=    15.5614 V^-1    
          w0=      1e-06 meter          dvt0=    2.61002         
        dvt1=   0.436314                dvt2=  -0.042436 V^-1    
       dvt0w=          0 meter^-1      dvt1w=          0 meter^-1
       dvt2w=          0 V^-1           dsub=    1.08136         
        eta0=   0.724124                etab=  -0.240523 V^-1    
          u0=    196.025 cm^2/V/sec         ua=2.76711e-09 m/V     
          ub=1.90709e-18 (m/V)^2          uc=6.16687e-11 V^-1    
        vsat=     197506 m/sec            a1=          0 v^-1    
          a2=          1               delta=       0.01 V       
        rdsw=    997.073 ohm-um         prwg=  -0.191611 V^-1    
        prwb=     -0.495 V^-1/2           wr=          1         
        pclm=    2.07721             pdiblc1=0.000431459         
     pdiblc2=  0.0252121             pdiblcb=-0.000996072 V^-1    
      pscbe1=3.19105e+10 V/m          pscbe2=1.32322e-08 V/m     
       drout=  0.0432774                pvag=  0.0420525         
     nfactor=    1.54605                cdsc=0.000141332 f/m^2   
       cdscb=          0 f/V/m^2       cdscd=          0 f/V/m^2 
         cit=          0 f/m^2        alpha0=          0 m/V     
       beta0=         30 V               dlc=1.25451e-08 meter   
         dwc=2.52729e-09 meter           clc=      1e-07 meter   
         cle=        0.6                cgso=   2.68e-10 f/m     
        cgdo=   2.68e-10 f/m            cgbo=      1e-11 f/m     
        cgsl=          0 f/m            cgdl=          0 f/m     
      ckappa=        0.6                  cf=9.37621e-11 f/m     
        tnom=     300.15 K               kt1=      -0.11 V       
        kt1l=          0                 kt2=      0.022         
         ute=       -1.5                 ua1=   4.31e-09 m/V     
         ub1=  -7.61e-18 (m/V)^2         uc1=   -5.6e-11 m/V^2   
          at=      33000 m/s             prt=          0         
         using Berkeley noise model       noiMod=          1         
        noia=    9.9e+18                noib=       2400         
        noic=    1.4e-12                  em=    4.1e+07         
          ef=          1                  af=          1         
          kf=          0              gdsnoi=-1.23457e-29         
         using Hspice diodes            using ACM 
         acm=         3                 hdif=   3.5e-07 meter    
        ldif=         0 meter             js=         0 amp/m^2  
         jsw=         0 amp/m            xti=         0          
           n=         1                   cj=0.00190249 f/m^2    
          mj=  0.464436                   pb=  0.981028 V        
        cjsw=3.14274e-10 f/m             mjsw=  0.330445          
         php=  0.981028 V               pbsw (not used)           
      cjgate=3.14274e-10 f/m            cjswg (not used)           
       mjswg (not used)                 pbswg (not used)           
       lketa= -0.0208318               wketa= -0.0079135         
       pvth0= 0.00495298                 pk2= 0.00338337         
       prdsw=    29.8169         
 

1****** HSPICE -- I-2013.12-SP2-1 32-BIT (Jun 10 2014) RHEL32 ******            
 ******  
 opamp! schhweeeet

 ****** circuit element summary tnom=  25.000 temp=  25.000 ******


 **** resistors

  
  
                             
 element name        0:r1    
 node1               0:n3    
 node2               0:nvss  
 model                       
 res eff            50.0000k 
 tc1                 0.      
 tc2                 0.      
 scale               1.0000  
 m                   1.0000  
 ac                 50.0000k 
 temp               25.0000  
 l                   0.      
 w                   0.      
 cap                 0.      
 noise            1.000e+00  


 **** independent sources

     name         node1        node2      dc volt    ac mag    ac phase    type
  vdd  nvdd              0                    2.0000     0.         0.      dc   
  vss  0                 nvss                 2.0000     0.         0.      dc   


 **** mosfets


 **** BSIM3v3 Model (Level49 or Level53)
  
  
                                                              
 element name        0:m1       0:m2       0:m3       0:m4    
 drain               0:n1       0:n2       0:n1       0:n2    
 gate                0:n3       0:n1       0:n2       0:n2    
 source              0:nvss     0:n3       0:nvdd     0:nvdd  
 bulk                0:nvss     0:nvss     0:nvdd     0:nvdd  
 model               0:cmosn    0:cmosn    0:cmosp    0:cmosp 
 w eff              11.2970u   11.2970u   49.9949u   49.9949u 
 l eff             277.7670n  277.7670n  254.9097n  254.9097n 
 rd eff              0.         0.         0.         0.      
 rs eff              0.         0.         0.         0.      
 cdsat               0.         0.         0.         0.      
 cssat               0.         0.         0.         0.      
 capbd              23.7098f   23.7098f   98.4402f   98.4402f 
 capbs              23.7098f   23.7098f   98.4402f   98.4402f 
 temp               25.0000    25.0000    25.0000    25.0000  
 aic                                                          
 nf                  1.0000     1.0000     1.0000     1.0000  
 sa                  0.         0.         0.         0.      
 sb                  0.         0.         0.         0.      
 sd                  0.         0.         0.         0.      
 saeff               0.         0.         0.         0.      
 sbeff               0.         0.         0.         0.      
 mulu0               1.0000     1.0000     1.0000     1.0000  
 mulua               1.0000     1.0000     1.0000     1.0000  
 mulub               1.0000     1.0000     1.0000     1.0000  
 m                   1.0000     1.0000     1.0000     1.0000  
 w drawn            11.3000u   11.3000u   50.0000u   50.0000u 
 l drawn           250.0000n  250.0000n  250.0000n  250.0000n 
  
  
1****** HSPICE -- I-2013.12-SP2-1 32-BIT (Jun 10 2014) RHEL32 ******            
 ******  
 opamp! schhweeeet

 ****** element node table
                                                                                      
 0                vdd              vss                                                
 n1               m1:d             m2:g             m3:d                              
 n2               m2:d             m3:g             m4:d             m4:g             
 n3               r1               m1:g             m2:s                              
 nvdd             vdd              m3:s             m3:b             m4:s             
                  m4:b                                                                
 nvss             r1               vss              m1:s             m1:b             
                  m2:b                                                                
 *****************************************************************
 ******  option summary
 ******
 runlvl  = 3         bypass  = 2         
1****** HSPICE -- I-2013.12-SP2-1 32-BIT (Jun 10 2014) RHEL32 ******            
 ******  
 opamp! schhweeeet

 ****** temperature-adjusted values tnom=  25.000 temp=  25.000 ******

 constants  - temp             kt               vt               gapsi            ni
            298.1500         4.116e-21         25.6918m          1.1156         1.256e+16      

 *** resistors
    name        eff val        eff val(ac)



 *** mosfet element parameters
 name             rd eff           rs eff           cdsat            cssat              vto                beta


        0:m1                  0.               0.               0.               0.             436.5725m         14.9320m      
        0:m2                  0.               0.               0.               0.             436.5725m         14.9320m      
        0:m3                  0.               0.               0.               0.            -658.2505m         30.0037m      
        0:m4                  0.               0.               0.               0.            -658.2505m         30.0037m      
 ******  
 opamp! schhweeeet

 ****** dc transfer curves tnom=  25.000 temp=  25.000 ******
x

        volt    param        current    
                 v(nvdd)-v(nvss)      r1         
    2.00000       4.0000      10.6262u  
    2.01000       4.0100      10.6292u  
    2.02000       4.0200      10.6323u  
    2.03000       4.0300      10.6353u  
    2.04000       4.0400      10.6383u  
    2.05000       4.0500      10.6414u  
    2.06000       4.0600      10.6444u  
    2.07000       4.0700      10.6475u  
    2.08000       4.0800      10.6505u  
    2.09000       4.0900      10.6535u  
    2.10000       4.1000      10.6566u  
    2.11000       4.1100      10.6596u  
    2.12000       4.1200      10.6626u  
    2.13000       4.1300      10.6657u  
    2.14000       4.1400      10.6687u  
    2.15000       4.1500      10.6717u  
    2.16000       4.1600      10.6748u  
    2.17000       4.1700      10.6778u  
    2.18000       4.1800      10.6808u  
    2.19000       4.1900      10.6839u  
    2.20000       4.2000      10.6869u  
    2.21000       4.2100      10.6899u  
    2.22000       4.2200      10.6929u  
    2.23000       4.2300      10.6960u  
    2.24000       4.2400      10.6990u  
    2.25000       4.2500      10.7020u  
    2.26000       4.2600      10.7050u  
    2.27000       4.2700      10.7081u  
    2.28000       4.2800      10.7111u  
    2.29000       4.2900      10.7141u  
    2.30000       4.3000      10.7171u  
    2.31000       4.3100      10.7201u  
    2.32000       4.3200      10.7232u  
    2.33000       4.3300      10.7262u  
    2.34000       4.3400      10.7292u  
    2.35000       4.3500      10.7322u  
    2.36000       4.3600      10.7352u  
    2.37000       4.3700      10.7382u  
    2.38000       4.3800      10.7413u  
    2.39000       4.3900      10.7443u  
    2.40000       4.4000      10.7473u  
    2.41000       4.4100      10.7503u  
    2.42000       4.4200      10.7533u  
    2.43000       4.4300      10.7563u  
    2.44000       4.4400      10.7593u  
    2.45000       4.4500      10.7623u  
    2.46000       4.4600      10.7653u  
    2.47000       4.4700      10.7684u  
    2.48000       4.4800      10.7714u  
    2.49000       4.4900      10.7744u  
    2.50000       4.5000      10.7774u  
y

          ***** job concluded
