Using: /usr/local/apps/synopsys/hspice/linux/hspice rc_lp_tran.sp
 ****** HSPICE -- I-2013.12-SP2-1 32-BIT (Jun 10 2014) RHEL32 ******            
  Copyright (C) 2014 Synopsys, Inc. All Rights Reserved.                        
  Unpublished-rights reserved under US copyright laws.
  This program is protected by law and is subject to the
  terms and conditions of the license agreement from Synopsys.
  Use of this program is your acceptance to be bound by the
  license agreement. HSPICE is the trademark of Synopsys, Inc.
  Input File: rc_lp_tran.sp                                                     
  Command line options: rc_lp_tran.sp
 lic:  
 lic: FLEXlm: v10.9.8 
 lic: USER:   niels538             HOSTNAME: ece-spiez 
 lic: HOSTID: 1803734585b4         PID:      45208 
 lic: Using FLEXlm license file: 
 lic: 27020@synopsys.cse.umn.edu 
 lic: Checkout 1 hspice 
 lic: License/Maintenance for hspice will expire on 19-dec-2016/2015.06 
 lic: 26(in_use)/50(total) FLOATING license(s) on SERVER 27020@synopsys.cse.umn.edu 
 lic:   
 Init: read install configuration file: /usr/local/apps/synopsys/hspice/meta.cfg
 scientific notation:
 a=10**-18  f=10**-15  p=10**-12  n=10**-9  u=10**-6
 m=10**-3   k=10**3    x=10**6    g=10**9 


 circuit parameter definitions
  parameter          =  value 





 constants  - tnom         kt           vt           gapsi        ni
            298.15000    4.1163e-21    25.69184m     1.11562    1.2565e+16 
  **info** (rc_lp_tran.sp:6) DC voltage reset to initial transient source value              in source        0:v1                  new dc=  0.0000D+00
  **warning** (rc_lp_tran.sp:6) pulse v1 period too small, reset to    20.00002
 **warning** (v_$v1:0) pulse rise time is  < or = zero, reset to tstep
  **warning** (rc_lp_tran.sp:5) Could not find branch element r2 ;branch output ignored
1****** HSPICE -- I-2013.12-SP2-1 32-BIT (Jun 10 2014) RHEL32 ******            
 ******  
 a simple ac run

 ****** circuit element summary tnom=  25.000 temp=  25.000 ******


 **** resistors

  
  
                             
 element name        0:r1    
 node1               0:1     
 node2               0:2     
 model                       
 res eff             1.0000k 
 tc1                 0.      
 tc2                 0.      
 scale               1.0000  
 m                   1.0000  
 ac                  1.0000k 
 temp               25.0000  
 l                   0.      
 w                   0.      
 cap                 0.      
 noise            1.000e+00  


 **** capacitors
  
  
                             
 element name        0:c1    
 node1               0:2     
 node2               0:0     
 model                       
 cap eff             1.0000u 
 tc1                 0.      
 tc2                 0.      
 scale               1.0000  
 ic                  0.      
 m                   1.0000  
 w                   0.      
 l                   0.      
 temp               25.0000  


 **** independent sources

     name         node1        node2      dc volt    ac mag    ac phase    type
  v1  1                 0                    0.         0.         0.      pulse
             initial value     0.     
             pulsed value.     1.0000 
             delay time...     0.     
             risetime.....    10.0000u
             falltime.....    20.0000 
             width........    10.0000u
             period.......    20.0000 

  
1****** HSPICE -- I-2013.12-SP2-1 32-BIT (Jun 10 2014) RHEL32 ******            
 ******  
 a simple ac run

 ****** element node table
                          
 0                c1 v1   
 1                r1 v1   
 2                r1 c1   
 **warning** (v_$v1:0) pulse rise time is  < or = zero, reset to tstep
 *****************************************************************
 ******  option summary
 ******
 runlvl  = 3         bypass  = 2         
 **info** dc convergence successful at Newton-Raphson method 
1****** HSPICE -- I-2013.12-SP2-1 32-BIT (Jun 10 2014) RHEL32 ******            
 ******  
 a simple ac run

 ****** operating point information tnom=  25.000 temp=  25.000 ******
 ****** operating point status is all       simulation time is     0.     
    node    =voltage      node    =voltage

 +0:1       =   0.      0:2       =   0.     


 **** voltage sources

 subckt             
 element  0:v1      
  volts      0.     
  current    0.     
  power      0.     

     total voltage source power dissipation=    0.            watts



 **** resistors

 subckt             
 element  0:r1      
  r value    1.0000k
  v drop     0.     
  current    0.     
  power      0.     

 ******  
 a simple ac run

 ****** transient analysis tnom=  25.000 temp=  25.000 ******
x

        time    voltage      voltage    
                     1            2     
    0.            0.           0.       
   10.00000u      1.0000       5.6001m  
   20.00000u      1.0000      15.4938m  
   30.00000u    999.9995m     25.2792m  
   40.00000u    999.9990m     34.9131m  
   50.00000u    999.9985m     44.4809m  
   60.00000u    999.9980m     54.0487m  
   70.00000u    999.9975m     63.2616m  
   80.00000u    999.9970m     72.2453m  
   90.00000u    999.9965m     81.2290m  
  100.00000u    999.9960m     90.2127m  
  110.00000u    999.9955m     99.1964m  
  120.00000u    999.9950m    108.1801m  
  130.00000u    999.9945m    117.1638m  
  140.00000u    999.9940m    126.1475m  
  150.00000u    999.9935m    135.1313m  
  160.00000u    999.9930m    144.1150m  
  170.00000u    999.9925m    151.7426m  
  180.00000u    999.9920m    159.1342m  
  190.00000u    999.9915m    166.5257m  
  200.00000u    999.9910m    173.9173m  
  210.00000u    999.9905m    181.3089m  
  220.00000u    999.9900m    188.7005m  
  230.00000u    999.9895m    196.0921m  
  240.00000u    999.9890m    203.4837m  
  250.00000u    999.9885m    210.8753m  
  260.00000u    999.9880m    218.2669m  
  270.00000u    999.9875m    225.6584m  
  280.00000u    999.9870m    233.0500m  
  290.00000u    999.9865m    240.4416m  
  300.00000u    999.9860m    247.8332m  
  310.00000u    999.9855m    255.2248m  
  320.00000u    999.9850m    262.6164m  
  330.00000u    999.9845m    270.0080m  
  340.00000u    999.9840m    277.3996m  
  350.00000u    999.9835m    284.7911m  
  360.00000u    999.9830m    292.1827m  
  370.00000u    999.9825m    299.5743m  
  380.00000u    999.9820m    306.9659m  
  390.00000u    999.9815m    314.3575m  
  400.00000u    999.9810m    321.7491m  
  410.00000u    999.9805m    329.1407m  
  420.00000u    999.9800m    336.5323m  
  430.00000u    999.9795m    343.9238m  
  440.00000u    999.9790m    351.3154m  
  450.00000u    999.9785m    358.7070m  
  460.00000u    999.9780m    366.0986m  
  470.00000u    999.9775m    373.4902m  
  480.00000u    999.9770m    379.5945m  
  490.00000u    999.9765m    384.9511m  
  500.00000u    999.9760m    390.3077m  
  510.00000u    999.9755m    395.6643m  
  520.00000u    999.9750m    401.0209m  
  530.00000u    999.9745m    406.3775m  
  540.00000u    999.9740m    411.7341m  
  550.00000u    999.9735m    417.0907m  
  560.00000u    999.9730m    422.4473m  
  570.00000u    999.9725m    427.8039m  
  580.00000u    999.9720m    433.1605m  
  590.00000u    999.9715m    438.5171m  
  600.00000u    999.9710m    443.8737m  
  610.00000u    999.9705m    449.2303m  
  620.00000u    999.9700m    454.5869m  
  630.00000u    999.9695m    459.9435m  
  640.00000u    999.9690m    465.3001m  
  650.00000u    999.9685m    470.6567m  
  660.00000u    999.9680m    476.0133m  
  670.00000u    999.9675m    481.3699m  
  680.00000u    999.9670m    486.7264m  
  690.00000u    999.9665m    492.0830m  
  700.00000u    999.9660m    497.4396m  
  710.00000u    999.9655m    502.7962m  
  720.00000u    999.9650m    508.1528m  
  730.00000u    999.9645m    513.5094m  
  740.00000u    999.9640m    518.8660m  
  750.00000u    999.9635m    524.2226m  
  760.00000u    999.9630m    529.5792m  
  770.00000u    999.9625m    534.9358m  
  780.00000u    999.9620m    540.2924m  
  790.00000u    999.9615m    545.6490m  
  800.00000u    999.9610m    551.0056m  
  810.00000u    999.9605m    555.1878m  
  820.00000u    999.9600m    558.9516m  
  830.00000u    999.9595m    562.7154m  
  840.00000u    999.9590m    566.4792m  
  850.00000u    999.9585m    570.2430m  
  860.00000u    999.9580m    574.0069m  
  870.00000u    999.9575m    577.7707m  
  880.00000u    999.9570m    581.5345m  
  890.00000u    999.9565m    585.2983m  
  900.00000u    999.9560m    589.0621m  
  910.00000u    999.9555m    592.8259m  
  920.00000u    999.9550m    596.5897m  
  930.00000u    999.9545m    600.3535m  
  940.00000u    999.9540m    604.1173m  
  950.00000u    999.9535m    607.8812m  
  960.00000u    999.9530m    611.6450m  
  970.00000u    999.9525m    615.4088m  
  980.00000u    999.9520m    619.1726m  
  990.00000u    999.9515m    622.9364m  
    1.00000m    999.9510m    626.7002m  
    1.01000m    999.9505m    630.4640m  
    1.02000m    999.9500m    634.2278m  
    1.03000m    999.9495m    637.9917m  
    1.04000m    999.9490m    641.7555m  
    1.05000m    999.9485m    645.5193m  
    1.06000m    999.9480m    649.2831m  
    1.07000m    999.9475m    653.0469m  
    1.08000m    999.9470m    656.8107m  
    1.09000m    999.9465m    660.5745m  
    1.10000m    999.9460m    664.3383m  
    1.11000m    999.9455m    668.1022m  
    1.12000m    999.9450m    671.8660m  
    1.13000m    999.9445m    675.6298m  
    1.14000m    999.9440m    679.3936m  
    1.15000m    999.9435m    683.1574m  
    1.16000m    999.9430m    686.9212m  
    1.17000m    999.9425m    690.6850m  
    1.18000m    999.9420m    694.4488m  
    1.19000m    999.9415m    697.1127m  
    1.20000m    999.9410m    699.6884m  
    1.21000m    999.9405m    702.2642m  
    1.22000m    999.9400m    704.8399m  
    1.23000m    999.9395m    707.4157m  
    1.24000m    999.9390m    709.9914m  
    1.25000m    999.9385m    712.5672m  
    1.26000m    999.9380m    715.1429m  
    1.27000m    999.9375m    717.7187m  
    1.28000m    999.9370m    720.2944m  
    1.29000m    999.9365m    722.8702m  
    1.30000m    999.9360m    725.4459m  
    1.31000m    999.9355m    728.0217m  
    1.32000m    999.9350m    730.5974m  
    1.33000m    999.9345m    733.1732m  
    1.34000m    999.9340m    735.7489m  
    1.35000m    999.9335m    738.3247m  
    1.36000m    999.9330m    740.9004m  
    1.37000m    999.9325m    743.4762m  
    1.38000m    999.9320m    746.0519m  
    1.39000m    999.9315m    748.6277m  
    1.40000m    999.9310m    751.2034m  
    1.41000m    999.9305m    753.7792m  
    1.42000m    999.9300m    756.3549m  
    1.43000m    999.9295m    758.9307m  
    1.44000m    999.9290m    761.5064m  
    1.45000m    999.9285m    764.0822m  
    1.46000m    999.9280m    766.6579m  
    1.47000m    999.9275m    769.2337m  
    1.48000m    999.9270m    771.8094m  
    1.49000m    999.9265m    774.3852m  
    1.50000m    999.9260m    776.9610m  
    1.51000m    999.9255m    779.5367m  
    1.52000m    999.9250m    782.1125m  
    1.53000m    999.9245m    784.6882m  
    1.54000m    999.9240m    787.2640m  
    1.55000m    999.9235m    789.8397m  
    1.56000m    999.9230m    791.6208m  
    1.57000m    999.9225m    793.3536m  
    1.58000m    999.9220m    795.0863m  
    1.59000m    999.9215m    796.8191m  
    1.60000m    999.9210m    798.5519m  
    1.61000m    999.9205m    800.2847m  
    1.62000m    999.9200m    802.0175m  
    1.63000m    999.9195m    803.7502m  
    1.64000m    999.9190m    805.4830m  
    1.65000m    999.9185m    807.2158m  
    1.66000m    999.9180m    808.9486m  
    1.67000m    999.9175m    810.6813m  
    1.68000m    999.9170m    812.4141m  
    1.69000m    999.9165m    814.1469m  
    1.70000m    999.9160m    815.8797m  
    1.71000m    999.9155m    817.6124m  
    1.72000m    999.9150m    819.3452m  
    1.73000m    999.9145m    821.0780m  
    1.74000m    999.9140m    822.8108m  
    1.75000m    999.9135m    824.5435m  
    1.76000m    999.9130m    826.2763m  
    1.77000m    999.9125m    828.0091m  
    1.78000m    999.9120m    829.7419m  
    1.79000m    999.9115m    831.4746m  
    1.80000m    999.9110m    833.2074m  
    1.81000m    999.9105m    834.9402m  
    1.82000m    999.9100m    836.6730m  
    1.83000m    999.9095m    838.4057m  
    1.84000m    999.9090m    840.1385m  
    1.85000m    999.9085m    841.8713m  
    1.86000m    999.9080m    843.6041m  
    1.87000m    999.9075m    845.3368m  
    1.88000m    999.9070m    847.0696m  
    1.89000m    999.9065m    848.8024m  
    1.90000m    999.9060m    850.5352m  
    1.91000m    999.9055m    852.2680m  
    1.92000m    999.9050m    854.0007m  
    1.93000m    999.9045m    855.7335m  
    1.94000m    999.9040m    857.4663m  
    1.95000m    999.9035m    859.1991m  
    1.96000m    999.9030m    860.9318m  
    1.97000m    999.9025m    862.6646m  
    1.98000m    999.9020m    864.0000m  
    1.99000m    999.9015m    865.1147m  
    2.00000m    999.9010m    866.2294m  
    2.01000m    999.9005m    867.3441m  
    2.02000m    999.9000m    868.4588m  
    2.03000m    999.8995m    869.5736m  
    2.04000m    999.8990m    870.6883m  
    2.05000m    999.8985m    871.8030m  
    2.06000m    999.8980m    872.9177m  
    2.07000m    999.8975m    874.0324m  
    2.08000m    999.8970m    875.1471m  
    2.09000m    999.8965m    876.2618m  
    2.10000m    999.8960m    877.3765m  
    2.11000m    999.8955m    878.4912m  
    2.12000m    999.8950m    879.6060m  
    2.13000m    999.8945m    880.7207m  
    2.14000m    999.8940m    881.8354m  
    2.15000m    999.8935m    882.9501m  
    2.16000m    999.8930m    884.0648m  
    2.17000m    999.8925m    885.1795m  
    2.18000m    999.8920m    886.2942m  
    2.19000m    999.8915m    887.4089m  
    2.20000m    999.8910m    888.5236m  
    2.21000m    999.8905m    889.6384m  
    2.22000m    999.8900m    890.7531m  
    2.23000m    999.8895m    891.8678m  
    2.24000m    999.8890m    892.9825m  
    2.25000m    999.8885m    894.0972m  
    2.26000m    999.8880m    895.2119m  
    2.27000m    999.8875m    896.3266m  
    2.28000m    999.8870m    897.4413m  
    2.29000m    999.8865m    898.5560m  
    2.30000m    999.8860m    899.6708m  
    2.31000m    999.8855m    900.7855m  
    2.32000m    999.8850m    901.9002m  
    2.33000m    999.8845m    903.0149m  
    2.34000m    999.8840m    904.1296m  
    2.35000m    999.8835m    905.2443m  
    2.36000m    999.8830m    906.3590m  
    2.37000m    999.8825m    907.4737m  
    2.38000m    999.8820m    908.5884m  
    2.39000m    999.8815m    909.7032m  
    2.40000m    999.8810m    910.8179m  
    2.41000m    999.8805m    911.9326m  
    2.42000m    999.8800m    913.0473m  
    2.43000m    999.8795m    913.9316m  
    2.44000m    999.8790m    914.6221m  
    2.45000m    999.8785m    915.3126m  
    2.46000m    999.8780m    916.0030m  
    2.47000m    999.8775m    916.6935m  
    2.48000m    999.8770m    917.3840m  
    2.49000m    999.8765m    918.0745m  
    2.50000m    999.8760m    918.7650m  
    2.51000m    999.8755m    919.4555m  
    2.52000m    999.8750m    920.1460m  
    2.53000m    999.8745m    920.8364m  
    2.54000m    999.8740m    921.5269m  
    2.55000m    999.8735m    922.2174m  
    2.56000m    999.8730m    922.9079m  
    2.57000m    999.8725m    923.5984m  
    2.58000m    999.8720m    924.2889m  
    2.59000m    999.8715m    924.9794m  
    2.60000m    999.8710m    925.6698m  
    2.61000m    999.8705m    926.3603m  
    2.62000m    999.8700m    927.0508m  
    2.63000m    999.8695m    927.7413m  
    2.64000m    999.8690m    928.4318m  
    2.65000m    999.8685m    929.1223m  
    2.66000m    999.8680m    929.8128m  
    2.67000m    999.8675m    930.5032m  
    2.68000m    999.8670m    931.1937m  
    2.69000m    999.8665m    931.8842m  
    2.70000m    999.8660m    932.5747m  
    2.71000m    999.8655m    933.2652m  
    2.72000m    999.8650m    933.9557m  
    2.73000m    999.8645m    934.6462m  
    2.74000m    999.8640m    935.3366m  
    2.75000m    999.8635m    936.0271m  
    2.76000m    999.8630m    936.7176m  
    2.77000m    999.8625m    937.4081m  
    2.78000m    999.8620m    938.0986m  
    2.79000m    999.8615m    938.7891m  
    2.80000m    999.8610m    939.4796m  
    2.81000m    999.8605m    940.1700m  
    2.82000m    999.8600m    940.8605m  
    2.83000m    999.8595m    941.5510m  
    2.84000m    999.8590m    942.2415m  
    2.85000m    999.8585m    942.9320m  
    2.86000m    999.8580m    943.6225m  
    2.87000m    999.8575m    944.3130m  
    2.88000m    999.8570m    945.0034m  
    2.89000m    999.8565m    945.6939m  
    2.90000m    999.8560m    946.3844m  
    2.91000m    999.8555m    947.0749m  
    2.92000m    999.8550m    947.7654m  
    2.93000m    999.8545m    948.3058m  
    2.94000m    999.8540m    948.7198m  
    2.95000m    999.8535m    949.1339m  
    2.96000m    999.8530m    949.5480m  
    2.97000m    999.8525m    949.9621m  
    2.98000m    999.8520m    950.3762m  
    2.99000m    999.8515m    950.7903m  
    3.00000m    999.8510m    951.2044m  
    3.01000m    999.8505m    951.6185m  
    3.02000m    999.8500m    952.0326m  
    3.03000m    999.8495m    952.4467m  
    3.04000m    999.8490m    952.8608m  
    3.05000m    999.8485m    953.2749m  
    3.06000m    999.8480m    953.6889m  
    3.07000m    999.8475m    954.1030m  
    3.08000m    999.8470m    954.5171m  
    3.09000m    999.8465m    954.9312m  
    3.10000m    999.8460m    955.3453m  
    3.11000m    999.8455m    955.7594m  
    3.12000m    999.8450m    956.1735m  
    3.13000m    999.8445m    956.5876m  
    3.14000m    999.8440m    957.0017m  
    3.15000m    999.8435m    957.4158m  
    3.16000m    999.8430m    957.8299m  
    3.17000m    999.8425m    958.2439m  
    3.18000m    999.8420m    958.6580m  
    3.19000m    999.8415m    959.0721m  
    3.20000m    999.8410m    959.4862m  
    3.21000m    999.8405m    959.9003m  
    3.22000m    999.8400m    960.3144m  
    3.23000m    999.8395m    960.7285m  
    3.24000m    999.8390m    961.1426m  
    3.25000m    999.8385m    961.5567m  
    3.26000m    999.8380m    961.9708m  
    3.27000m    999.8375m    962.3849m  
    3.28000m    999.8370m    962.7990m  
    3.29000m    999.8365m    963.2130m  
    3.30000m    999.8360m    963.6271m  
    3.31000m    999.8355m    964.0412m  
    3.32000m    999.8350m    964.4553m  
    3.33000m    999.8345m    964.8694m  
    3.34000m    999.8340m    965.2835m  
    3.35000m    999.8335m    965.6976m  
    3.36000m    999.8330m    966.1117m  
    3.37000m    999.8325m    966.5258m  
    3.38000m    999.8320m    966.9399m  
    3.39000m    999.8315m    967.3540m  
    3.40000m    999.8310m    967.7680m  
    3.41000m    999.8305m    968.1821m  
    3.42000m    999.8300m    968.5962m  
    3.43000m    999.8295m    968.9203m  
    3.44000m    999.8290m    969.1685m  
    3.45000m    999.8285m    969.4168m  
    3.46000m    999.8280m    969.6650m  
    3.47000m    999.8275m    969.9133m  
    3.48000m    999.8270m    970.1615m  
    3.49000m    999.8265m    970.4098m  
    3.50000m    999.8260m    970.6580m  
    3.51000m    999.8255m    970.9063m  
    3.52000m    999.8250m    971.1545m  
    3.53000m    999.8245m    971.4028m  
    3.54000m    999.8240m    971.6511m  
    3.55000m    999.8235m    971.8993m  
    3.56000m    999.8230m    972.1476m  
    3.57000m    999.8225m    972.3958m  
    3.58000m    999.8220m    972.6441m  
    3.59000m    999.8215m    972.8923m  
    3.60000m    999.8210m    973.1406m  
    3.61000m    999.8205m    973.3888m  
    3.62000m    999.8200m    973.6371m  
    3.63000m    999.8195m    973.8853m  
    3.64000m    999.8190m    974.1336m  
    3.65000m    999.8185m    974.3819m  
    3.66000m    999.8180m    974.6301m  
    3.67000m    999.8175m    974.8784m  
    3.68000m    999.8170m    975.1266m  
    3.69000m    999.8165m    975.3749m  
